(1620515258.382821) can0 102#011B014902760305
(1620515258.385434) can0 080#00
(1620515258.386795) can0 581#4077600000000000
(1620515258.388219) can0 581#406C600000000000
(1620515258.388284) can0 420#020001
(1620515258.395922) can0 601#2B71600000000000
(1620515258.396101) can0 581#6071600000000000
(1620515258.403672) can0 102#011B0148027002F8
(1620515258.421312) can0 601#2B71600000000000
(1620515258.422667) can0 581#6071600000000000
(1620515258.425312) can0 102#011D014C026C02FD
(1620515258.445438) can0 102#011E014F027102F8
(1620515258.448092) can0 601#2B71600000000000
(1620515258.448291) can0 581#6071600000000000
(1620515258.467289) can0 102#011E014F026D02FD
(1620515258.473559) can0 601#2B71600000000000
(1620515258.474928) can0 581#6071600000000000
(1620515258.486315) can0 080#00
(1620515258.487679) can0 581#4077600000000000
(1620515258.487759) can0 581#406C600000000000
(1620515258.487924) can0 102#011E014E027A0303
(1620515258.489283) can0 420#020001
(1620515258.500670) can0 601#2B71600000000000
(1620515258.500784) can0 581#6071600000000000
(1620515258.509654) can0 102#011A0146027802FD
(1620515258.526033) can0 601#2B71600000000000
(1620515258.526141) can0 581#6071600000000000
(1620515258.530030) can0 102#011F0151027102FB
(1620515258.551413) can0 102#011F015002770309
(1620515258.552761) can0 601#2B71600000000000
(1620515258.552889) can0 581#6071600000000000
(1620515258.573044) can0 102#011B014802760305
(1620515258.578178) can0 601#2B71600000000000
(1620515258.578268) can0 581#6071600000000000
(1620515258.585907) can0 080#00
(1620515258.587292) can0 581#4077600000000000
(1620515258.588640) can0 581#406C600000000000
(1620515258.590020) can0 420#020001
(1620515258.593904) can0 102#011B0148026D02FF
(1620515258.604033) can0 601#2B71600000000000
(1620515258.605398) can0 581#6071600000000000
(1620515258.615538) can0 102#011F0151027A0302
(1620515258.630654) can0 601#2B71600000000000
(1620515258.630768) can0 581#6071600000000000
(1620515258.635897) can0 102#011B0149027902FE
(1620515258.657286) can0 601#2B71600000000000
(1620515258.657390) can0 581#6071600000000000
(1620515258.657519) can0 102#011E014F026D0309
(1620515258.678910) can0 102#011B0148027302FC
(1620515258.682786) can0 601#2B71600000000000
(1620515258.682898) can0 581#6071600000000000
(1620515258.686769) can0 080#00
(1620515258.688137) can0 581#4077600000000000
(1620515258.688260) can0 581#406C600000000000
(1620515258.689636) can0 420#020001
(1620515258.699775) can0 102#011E014E027202F8
(1620515258.708657) can0 601#2B71600000000000
(1620515258.708771) can0 581#6071600000000000
(1620515258.720164) can0 102#011D014C027C0308
(1620515258.735360) can0 601#2B71600000000000
(1620515258.735398) can0 581#6071600000000000
(1620515258.741782) can0 102#011C0149023802DF
(1620515258.760660) can0 601#2B71600000000000
(1620515258.762016) can0 581#6071600000000000
(1620515258.762134) can0 102#011E014D02760302
(1620515258.783565) can0 102#011B0149027A0303
(1620515258.787394) can0 080#00
(1620515258.788760) can0 581#4077600000000000
(1620515258.788886) can0 581#406C600000000000
(1620515258.790262) can0 420#020001
(1620515258.791638) can0 601#2B71600000000000
(1620515258.791762) can0 581#6071600000000000
(1620515258.804402) can0 102#011A01470277030B
(1620515258.813264) can0 601#2B71600000000000
(1620515258.813402) can0 581#6071600000000000
(1620515258.826021) can0 102#011B014902770309
(1620515258.839902) can0 601#2B71600000000000
(1620515258.840072) can0 581#6071600000000000
(1620515258.847639) can0 102#011B0148026F0308
(1620515258.865274) can0 601#2B71600000000000
(1620515258.865395) can0 581#6071600000000000
(1620515258.868014) can0 102#011C014A027902FE
(1620515258.886908) can0 080#00
(1620515258.888260) can0 581#4077600000000000
(1620515258.889636) can0 102#011E014E02740302
(1620515258.889760) can0 581#406C600000000000
(1620515258.889890) can0 420#020001
(1620515258.891261) can0 601#2B71600000000000
(1620515258.891391) can0 581#6071600000000000
(1620515258.910274) can0 102#011A0146028002CE
(1620515258.917910) can0 601#2B71600000000000
(1620515258.918026) can0 581#6071600000000000
(1620515258.931893) can0 102#011C0149026802F8
(1620515258.943282) can0 601#2B71600000000000
(1620515258.944635) can0 581#6071600000000000
(1620515258.952261) can0 102#011E014D02760308
(1620515258.969906) can0 601#2B71600000000000
(1620515258.970063) can0 581#6071600000000000
(1620515258.973909) can0 102#01190146027802FC
(1620515258.987779) can0 080#00
(1620515258.989140) can0 581#4077600000000000
(1620515258.990513) can0 581#406C600000000000
(1620515258.990639) can0 420#020001
(1620515258.994515) can0 102#011E014F02760305
(1620515258.995888) can0 601#2B71600000000000
(1620515258.996017) can0 581#6071600000000000
(1620515259.016145) can0 102#011B014902770308
(1620515259.022527) can0 601#2B71600000000000
(1620515259.022644) can0 581#6071600000000000
(1620515259.037780) can0 102#011A0146028A02D9
(1620515259.047889) can0 601#2B71600000000000
(1620515259.048011) can0 581#6071600000000000
(1620515259.058135) can0 102#01190146027A0302
(1620515259.074523) can0 601#2B71600000000000
(1620515259.074743) can0 581#6071600000000000
(1620515259.079772) can0 102#0117014D024902E4
(1620515259.088636) can0 080#00
(1620515259.088863) can0 581#4077600000000000
(1620515259.090136) can0 581#406C600000000000
(1620515259.091512) can0 420#020001
(1620515259.100386) can0 601#2B71600000000000
(1620515259.100507) can0 102#01180144027F030E
(1620515259.100631) can0 581#6071600000000000
(1620515259.122028) can0 102#01190146026002EE
(1620515259.125886) can0 601#2B71600000000000
(1620515259.127258) can0 581#6071600000000000
(1620515259.142395) can0 102#011A0148027B030D
(1620515259.152518) can0 601#2B71600000000000
(1620515259.152643) can0 581#6071600000000000
(1620515259.164023) can0 102#01180145027C0308
(1620515259.179141) can0 601#2B71600000000000
(1620515259.179272) can0 581#6071600000000000
(1620515259.185641) can0 102#01180145028502DD
(1620515259.188262) can0 080#00
(1620515259.189635) can0 581#4077600000000000
(1620515259.191014) can0 581#406C600000000000
(1620515259.191136) can0 420#020001
(1620515259.205023) can0 601#2B71600000000000
(1620515259.205141) can0 581#6071600000000000
(1620515259.206507) can0 102#01190146027D0308
(1620515259.227902) can0 102#0117014C028D02E3
(1620515259.230511) can0 601#2B71600000000000
(1620515259.230738) can0 581#6071600000000000
(1620515259.248273) can0 102#0118014402750303
(1620515259.257143) can0 601#2B71600000000000
(1620515259.257273) can0 581#6071600000000000
(1620515259.269906) can0 102#01180145027E030D
(1620515259.282529) can0 601#2B71600000000000
(1620515259.282648) can0 581#6071600000000000
(1620515259.289010) can0 080#00
(1620515259.290384) can0 581#4077600000000000
(1620515259.290508) can0 102#01180145028002D0
(1620515259.290631) can0 581#406C600000000000
(1620515259.292009) can0 420#020001
(1620515259.309654) can0 601#2B71600000000000
(1620515259.309770) can0 581#6071600000000000
(1620515259.311169) can0 102#0118014402750308
(1620515259.332528) can0 102#0117014C02730300
(1620515259.335142) can0 601#2B71600000000000
(1620515259.335330) can0 581#6071600000000000
(1620515259.354151) can0 102#0116014A026002F0
(1620515259.361763) can0 601#2B71600000000000
(1620515259.361891) can0 581#6071600000000000
(1620515259.374521) can0 102#011A01470277030C
(1620515259.387144) can0 601#2B71600000000000
(1620515259.387266) can0 581#6071600000000000
(1620515259.388634) can0 080#00
(1620515259.390018) can0 581#4077600000000000
(1620515259.391388) can0 581#406C600000000000
(1620515259.392759) can0 420#020001
(1620515259.396637) can0 102#01190145028302D6
(1620515259.413031) can0 601#2B71600000000000
(1620515259.413262) can0 581#6071600000000000
(1620515259.417133) can0 102#01190146026302E8
(1620515259.438523) can0 102#01190147027502FC
(1620515259.439886) can0 601#2B71600000000000
(1620515259.440017) can0 581#6071600000000000
(1620515259.460141) can0 102#011B0149027E030D
(1620515259.465287) can0 601#2B71600000000000
(1620515259.465396) can0 581#6071600000000000
(1620515259.480536) can0 102#01190146028502DC
(1620515259.489394) can0 080#00
(1620515259.490754) can0 581#4077600000000000
(1620515259.492133) can0 581#406C600000000000
(1620515259.492261) can0 420#020001
(1620515259.493638) can0 601#2B71600000000000
(1620515259.493764) can0 581#6071600000000000
(1620515259.501389) can0 102#01190146028902D4
(1620515259.517776) can0 601#2B71600000000000
(1620515259.517896) can0 581#6071600000000000
(1620515259.523009) can0 102#01180145026B02FC
(1620515259.544387) can0 601#2B71600000000000
(1620515259.544544) can0 102#01180144028302D8
(1620515259.544636) can0 581#6071600000000000
(1620515259.564781) can0 102#0118014502750303
(1620515259.569884) can0 601#2B71600000000000
(1620515259.570013) can0 581#6071600000000000
(1620515259.586387) can0 102#01180144028502DB
(1620515259.590264) can0 080#00
(1620515259.590391) can0 581#4077600000000000
(1620515259.591763) can0 581#406C600000000000
(1620515259.593136) can0 420#020001
(1620515259.595763) can0 601#2B71600000000000
(1620515259.595893) can0 581#6071600000000000
(1620515259.607272) can0 102#011A0146027B0304
(1620515259.622369) can0 601#2B71600000000000
(1620515259.622485) can0 581#6071600000000000
(1620515259.628868) can0 102#0116014A02770308
(1620515259.647775) can0 601#2B71600000000000
(1620515259.647891) can0 581#6071600000000000
(1620515259.649266) can0 102#0118014402740302
(1620515259.670653) can0 102#01180144027F0310
(1620515259.674518) can0 601#2B71600000000000
(1620515259.674645) can0 581#6071600000000000
(1620515259.689761) can0 080#00
(1620515259.691145) can0 581#4077600000000000
(1620515259.691270) can0 102#01180144025D02F9
(1620515259.692634) can0 581#406C600000000000
(1620515259.692763) can0 420#020001
(1620515259.700389) can0 601#2B71600000000000
(1620515259.700514) can0 581#6071600000000000
(1620515259.713141) can0 102#0119014602790301
(1620515259.725764) can0 601#2B71600000000000
(1620515259.727138) can0 581#6071600000000000
(1620515259.734763) can0 102#01180144029402DF
(1620515259.752405) can0 601#2B71600000000000
(1620515259.752519) can0 581#6071600000000000
(1620515259.755137) can0 102#011A0146027802FC
(1620515259.776523) can0 102#011B0148023102D9
(1620515259.779272) can0 581#6071600000000000
(1620515259.779141) can0 601#2B71600000000000
(1620515259.790645) can0 080#00
(1620515259.792014) can0 581#4077600000000000
(1620515259.792145) can0 581#406C600000000000
(1620515259.793511) can0 420#020001
(1620515259.797385) can0 102#01190146027F0313
(1620515259.805024) can0 601#2B71600000000000
(1620515259.805157) can0 581#6071600000000000
(1620515259.819024) can0 102#01180144027A0302
(1620515259.830410) can0 601#2B71600000000000
(1620515259.830517) can0 581#6071600000000000
(1620515259.839389) can0 102#01180144027A0302
(1620515259.857014) can0 601#2B71600000000000
(1620515259.857137) can0 581#6071600000000000
(1620515259.861036) can0 102#0117014B027F0313
(1620515259.882535) can0 102#01190146027D030B
(1620515259.882642) can0 601#2B71600000000000
(1620515259.882763) can0 581#6071600000000000
(1620515259.890385) can0 080#00
(1620515259.891761) can0 581#4077600000000000
(1620515259.893138) can0 581#406C600000000000
(1620515259.893256) can0 420#020001
(1620515259.903394) can0 102#0118014402730301
(1620515259.908514) can0 601#2B71600000000000
(1620515259.909883) can0 581#6071600000000000
(1620515259.923776) can0 102#0118014402760308
(1620515259.935140) can0 601#2B71600000000000
(1620515259.935270) can0 581#6071600000000000
(1620515259.945395) can0 102#0117014C027C02FF
(1620515259.961781) can0 601#2B71600000000000
(1620515259.961895) can0 581#6071600000000000
(1620515259.967011) can0 102#011C014C02750303
(1620515259.987152) can0 601#2B71600000000000
(1620515259.987266) can0 102#01160148027D030B
(1620515259.987389) can0 581#6071600000000000
(1620515259.991262) can0 080#00
(1620515259.992636) can0 581#4077600000000000
(1620515259.992764) can0 581#406C600000000000
(1620515259.994135) can0 420#020001
(1620515260.008022) can0 102#01190145027F0310
(1620515260.013148) can0 601#2B71600000000000
(1620515260.013280) can0 581#6071600000000000
(1620515260.029652) can0 102#01190145027E030D
(1620515260.039774) can0 601#2B71600000000000
(1620515260.039892) can0 581#6071600000000000
(1620515260.051272) can0 102#01190146027A0300
(1620515260.065141) can0 601#2B71600000000000
(1620515260.065263) can0 581#6071600000000000
(1620515260.071646) can0 102#01180144027302FE
(1620515260.091769) can0 080#00
(1620515260.093148) can0 581#4077600000000000
(1620515260.093278) can0 102#011C01490275030C
(1620515260.093387) can0 581#406C600000000000
(1620515260.094761) can0 420#020001
(1620515260.096138) can0 601#2B71600000000000
(1620515260.096264) can0 581#6071600000000000
(1620515260.113899) can0 102#0118014502B302EC
(1620515260.117761) can0 601#2B71600000000000
(1620515260.117894) can0 581#6071600000000000
(1620515260.135523) can0 102#011A0147027802FD
(1620515260.144385) can0 601#2B71600000000000
(1620515260.144514) can0 581#6071600000000000
(1620515260.155895) can0 102#011C0149027C0305
(1620515260.169769) can0 601#2B71600000000000
(1620515260.169912) can0 581#6071600000000000
(1620515260.177514) can0 102#01180145027C0304
(1620515260.191390) can0 080#00
(1620515260.192761) can0 581#4077600000000000
(1620515260.194133) can0 581#406C600000000000
(1620515260.194266) can0 420#020001
(1620515260.195638) can0 601#2B71600000000000
(1620515260.195766) can0 581#6071600000000000
(1620515260.198383) can0 102#01180145027802FD
(1620515260.219780) can0 102#011D014C026F0309
(1620515260.222385) can0 601#2B71600000000000
(1620515260.222510) can0 581#6071600000000000
(1620515260.241404) can0 102#01180144028502D8
(1620515260.247782) can0 601#2B71600000000000
(1620515260.249136) can0 581#6071600000000000
(1620515260.261761) can0 102#01190147028202D0
(1620515260.274388) can0 601#2B71600000000000
(1620515260.274526) can0 581#6071600000000000
(1620515260.283394) can0 102#01190145027302FE
(1620515260.292277) can0 080#00
(1620515260.293635) can0 581#4077600000000000
(1620515260.293768) can0 581#406C600000000000
(1620515260.295132) can0 420#020001
(1620515260.300261) can0 601#2B71600000000000
(1620515260.300392) can0 581#6071600000000000
(1620515260.304257) can0 102#011D014B027C0305
(1620515260.325654) can0 102#01190145027D0309
(1620515260.327010) can0 601#2B71600000000000
(1620515260.327134) can0 581#6071600000000000
(1620515260.346014) can0 102#01180145027902FE
(1620515260.352387) can0 601#2B71600000000000
(1620515260.352513) can0 581#6071600000000000
(1620515260.367638) can0 102#011C0149027902FE
(1620515260.379015) can0 601#2B71600000000000
(1620515260.379137) can0 581#6071600000000000
(1620515260.389257) can0 102#011D014C02760305
(1620515260.393136) can0 080#00
(1620515260.393333) can0 581#4077600000000000
(1620515260.394639) can0 581#406C600000000000
(1620515260.396028) can0 420#020001
(1620515260.404893) can0 601#2B71600000000000
(1620515260.405019) can0 581#6071600000000000
(1620515260.410142) can0 102#01180144028002D0
(1620515260.431516) can0 601#2B71600000000000
(1620515260.431679) can0 102#01180144029D02E2
(1620515260.431764) can0 581#6071600000000000
(1620515260.451902) can0 102#011A0146027B0300
(1620515260.457008) can0 601#2B71600000000000
(1620515260.457134) can0 581#6071600000000000
(1620515260.473513) can0 102#01180143028302D0
(1620515260.483646) can0 601#2B71600000000000
(1620515260.483871) can0 581#6071600000000000
(1620515260.492651) can0 080#00
(1620515260.494016) can0 581#4077600000000000
(1620515260.494150) can0 102#0117014A027402FE
(1620515260.495508) can0 581#406C600000000000
(1620515260.495636) can0 420#020001
(1620515260.509513) can0 601#2B71600000000000
(1620515260.509642) can0 581#6071600000000000
(1620515260.514759) can0 102#011C014A028A02D8
(1620515260.534907) can0 601#2B71600000000000
(1620515260.535021) can0 581#6071600000000000
(1620515260.536384) can0 102#01190146027F0311
(1620515260.557763) can0 102#011801440277030A
(1620515260.561639) can0 601#2B71600000000000
(1620515260.561766) can0 581#6071600000000000
(1620515260.578155) can0 102#01180144028202D5
(1620515260.587010) can0 601#2B71600000000000
(1620515260.587134) can0 581#6071600000000000
(1620515260.593516) can0 080#00
(1620515260.594887) can0 581#4077600000000000
(1620515260.595012) can0 581#406C600000000000
(1620515260.596384) can0 420#020001
(1620515260.600260) can0 102#011A0147027F0305
(1620515260.614153) can0 601#2B71600000000000
(1620515260.614269) can0 581#6071600000000000
(1620515260.620656) can0 102#01190147027A0302
(1620515260.639542) can0 601#2B71600000000000
(1620515260.639641) can0 581#6071600000000000
(1620515260.642264) can0 102#01180144028002CE
(1620515260.663658) can0 102#01190146027C0302
(1620515260.666261) can0 601#2B71600000000000
(1620515260.666388) can0 581#6071600000000000
(1620515260.684026) can0 102#01180144028002D9
(1620515260.691654) can0 601#2B71600000000000
(1620515260.691767) can0 581#6071600000000000
(1620515260.693138) can0 080#00
(1620515260.694508) can0 581#4077600000000000
(1620515260.695884) can0 581#406C600000000000
(1620515260.697258) can0 420#020001
(1620515260.704897) can0 102#0118014402760306
(1620515260.717531) can0 601#2B71600000000000
(1620515260.717711) can0 581#6071600000000000
(1620515260.726521) can0 102#01180143027102FE
(1620515260.744154) can0 601#2B71600000000000
(1620515260.744271) can0 581#6071600000000000
(1620515260.748142) can0 102#011B0149027D030B
(1620515260.768280) can0 102#01180145028102D3
(1620515260.769637) can0 601#2B71600000000000
(1620515260.769762) can0 581#6071600000000000
(1620515260.789903) can0 102#01190145027C0316
(1620515260.793765) can0 080#00
(1620515260.795138) can0 581#4077600000000000
(1620515260.796511) can0 581#406C600000000000
(1620515260.796640) can0 420#020001
(1620515260.798012) can0 601#2B71600000000000
(1620515260.798140) can0 581#6071600000000000
(1620515260.810776) can0 102#011A0147029302DE
(1620515260.822149) can0 601#2B71600000000000
(1620515260.822293) can0 581#6071600000000000
(1620515260.832399) can0 102#011A0147027C0308
(1620515260.848779) can0 601#2B71600000000000
(1620515260.848890) can0 581#6071600000000000
(1620515260.852767) can0 102#01180145027D030B
(1620515260.874153) can0 102#01180144027C0304
(1620515260.874268) can0 601#2B71600000000000
(1620515260.874403) can0 581#6071600000000000
(1620515260.894529) can0 080#00
(1620515260.895885) can0 102#01180144027902FD
(1620515260.896014) can0 581#4077600000000000
(1620515260.896138) can0 581#406C600000000000
(1620515260.897508) can0 420#020001
(1620515260.900139) can0 601#2B71600000000000
(1620515260.900265) can0 581#6071600000000000
(1620515260.916617) can0 102#011C014C02740300
(1620515260.926783) can0 601#2B71600000000000
(1620515260.926891) can0 581#6071600000000000
(1620515260.937021) can0 102#01180144027D0314
(1620515260.952155) can0 601#2B71600000000000
(1620515260.953510) can0 581#6071600000000000
(1620515260.958639) can0 102#0119014602770309
(1620515260.978778) can0 601#2B71600000000000
(1620515260.978893) can0 581#6071600000000000
(1620515260.980267) can0 102#01180144028402D1
(1620515260.995402) can0 080#00
(1620515260.995547) can0 581#4077600000000000
(1620515260.996885) can0 581#406C600000000000
(1620515260.998261) can0 420#020001
(1620515261.000884) can0 102#01180144027C0305
(1620515261.004791) can0 601#2B71600000000000
(1620515261.004956) can0 581#6071600000000000
(1620515261.022579) can0 102#01190146027302FE
(1620515261.031428) can0 601#2B71600000000000
(1620515261.031508) can0 581#6071600000000000
(1620515261.042929) can0 102#011C014A028C02D6
(1620515261.056787) can0 601#2B71600000000000
(1620515261.057124) can0 581#6071600000000000
(1620515261.064534) can0 102#011A0147027A0303
(1620515261.083419) can0 601#2B71600000000000
(1620515261.083628) can0 581#6071600000000000
(1620515261.084885) can0 102#01180144027F0310
(1620515261.095079) can0 080#00
(1620515261.096426) can0 581#4077600000000000
(1620515261.097772) can0 581#406C600000000000
(1620515261.097919) can0 420#020001
(1620515261.106796) can0 102#01190145026E0306
(1620515261.109410) can0 601#2B71600000000000
(1620515261.109524) can0 581#6071600000000000
(1620515261.127173) can0 102#01190146025902ED
(1620515261.136037) can0 601#2B71600000000000
(1620515261.136219) can0 581#6071600000000000
(1620515261.148787) can0 102#011B0148027D0303
(1620515261.161408) can0 601#2B71600000000000
(1620515261.161789) can0 581#6071600000000000
(1620515261.169159) can0 102#01190146028702DE
(1620515261.188041) can0 601#2B71600000000000
(1620515261.188254) can0 581#6071600000000000
(1620515261.190784) can0 102#011A0146028202D4
(1620515261.195922) can0 080#00
(1620515261.196085) can0 581#4077600000000000
(1620515261.197391) can0 581#406C600000000000
(1620515261.198767) can0 420#020001
(1620515261.211415) can0 102#01190146027B0306
(1620515261.214042) can0 601#2B71600000000000
(1620515261.214143) can0 581#6071600000000000
(1620515261.233032) can0 102#01190146027D030D
(1620515261.239409) can0 601#2B71600000000000
(1620515261.239529) can0 581#6071600000000000
(1620515261.254662) can0 102#01190146027C0308
(1620515261.266038) can0 601#2B71600000000000
(1620515261.266149) can0 581#6071600000000000
(1620515261.275055) can0 102#0118014402760309
(1620515261.291546) can0 601#2B71600000000000
(1620515261.291751) can0 581#6071600000000000
(1620515261.295561) can0 080#00
(1620515261.296917) can0 102#01180145027C0308
(1620515261.297120) can0 581#4077600000000000
(1620515261.298411) can0 581#406C600000000000
(1620515261.298652) can0 420#020001
(1620515261.317409) can0 102#0119014502770309
(1620515261.317567) can0 601#2B71600000000000
(1620515261.318887) can0 581#6071600000000000
(1620515261.339038) can0 102#01190145027A0302
(1620515261.344157) can0 601#2B71600000000000
(1620515261.344271) can0 581#6071600000000000
(1620515261.359409) can0 102#01180144027D0305
(1620515261.370772) can0 601#2B71600000000000
(1620515261.370912) can0 581#6071600000000000
(1620515261.381041) can0 102#01190145028502D9
(1620515261.396281) can0 080#00
(1620515261.397638) can0 581#4077600000000000
(1620515261.397763) can0 581#406C600000000000
(1620515261.399136) can0 420#020001
(1620515261.400514) can0 601#2B71600000000000
(1620515261.400637) can0 581#6071600000000000
(1620515261.402011) can0 102#011A014702C102EA
(1620515261.422163) can0 601#2B71600000000000
(1620515261.422278) can0 581#6071600000000000
(1620515261.423637) can0 102#011A0147027302FE
(1620515261.443780) can0 102#011C014A02740301
(1620515261.448900) can0 601#2B71600000000000
(1620515261.449064) can0 581#6071600000000000
(1620515261.465405) can0 102#01180144028B02DA
(1620515261.474282) can0 601#2B71600000000000
(1620515261.474396) can0 581#6071600000000000
(1620515261.487026) can0 102#011A0147027C0305
(1620515261.497154) can0 080#00
(1620515261.497378) can0 581#4077600000000000
(1620515261.498633) can0 581#406C600000000000
(1620515261.500013) can0 420#020001
(1620515261.500144) can0 601#2B71600000000000
(1620515261.501508) can0 581#6071600000000000
(1620515261.507895) can0 102#011B0148029102D8
(1620515261.526783) can0 601#2B71600000000000
(1620515261.526900) can0 581#6071600000000000
(1620515261.528261) can0 102#01190146027802FA
(1620515261.549668) can0 102#011C0149027F030B
(1620515261.552266) can0 601#2B71600000000000
(1620515261.553644) can0 581#6071600000000000
(1620515261.571286) can0 102#011A0146026F0308
(1620515261.578901) can0 601#2B71600000000000
(1620515261.579050) can0 581#6071600000000000
(1620515261.591661) can0 102#01190145027202FD
(1620515261.596776) can0 080#00
(1620515261.598140) can0 581#4077600000000000
(1620515261.599511) can0 581#406C600000000000
(1620515261.599635) can0 420#020001
(1620515261.604768) can0 601#2B71600000000000
(1620515261.604897) can0 581#6071600000000000
(1620515261.613778) can0 102#011C014A028102D0
(1620515261.631405) can0 601#2B71600000000000
(1620515261.631527) can0 581#6071600000000000
(1620515261.634143) can0 102#0119014502750308
(1620515261.655530) can0 102#01180143027D030B
(1620515261.656895) can0 601#2B71600000000000
(1620515261.657036) can0 581#6071600000000000
(1620515261.676029) can0 102#0119014502790301
(1620515261.683651) can0 601#2B71600000000000
(1620515261.683768) can0 581#6071600000000000
(1620515261.697774) can0 102#01180144028202D4
(1620515261.697673) can0 080#00
(1620515261.697894) can0 581#4077600000000000
(1620515261.699263) can0 581#406C600000000000
(1620515261.700636) can0 420#020001
(1620515261.709527) can0 601#2B71600000000000
(1620515261.709643) can0 581#6071600000000000
(1620515261.718517) can0 102#011A0147026C02FA
(1620515261.734905) can0 601#2B71600000000000
(1620515261.736275) can0 581#6071600000000000
(1620515261.740145) can0 102#011C0149027F0311
(1620515261.761528) can0 102#01190145028502D4
(1620515261.761645) can0 601#2B71600000000000
(1620515261.761763) can0 581#6071600000000000
(1620515261.781908) can0 102#01190146027802FD
(1620515261.788284) can0 601#2B71600000000000
(1620515261.788390) can0 581#6071600000000000
(1620515261.797273) can0 080#00
(1620515261.798634) can0 581#4077600000000000
(1620515261.800012) can0 581#406C600000000000
(1620515261.800135) can0 420#020001
(1620515261.802768) can0 102#011C014A027B0305
(1620515261.814160) can0 601#2B71600000000000
(1620515261.814272) can0 581#6071600000000000
(1620515261.824570) can0 102#011A0147026E0304
(1620515261.839673) can0 601#2B71600000000000
(1620515261.839759) can0 581#6071600000000000
(1620515261.844909) can0 102#01190146028002D2
(1620515261.866280) can0 601#2B71600000000000
(1620515261.866403) can0 581#6071600000000000
(1620515261.866519) can0 102#01180144027B0304
(1620515261.887903) can0 102#01180144028302D3
(1620515261.891770) can0 601#2B71600000000000
(1620515261.891904) can0 581#6071600000000000
(1620515261.898288) can0 080#00
(1620515261.898401) can0 581#4077600000000000
(1620515261.899768) can0 581#406C600000000000
(1620515261.901144) can0 420#020001
(1620515261.908767) can0 102#0119014602BE02F2
(1620515261.917645) can0 601#2B71600000000000
(1620515261.919057) can0 581#6071600000000000
(1620515261.929283) can0 102#01180145027B0303
(1620515261.944406) can0 601#2B71600000000000
(1620515261.944532) can0 581#6071600000000000
(1620515261.950892) can0 102#01190146027802FE
(1620515261.969776) can0 601#2B71600000000000
(1620515261.971139) can0 581#6071600000000000
(1620515261.972509) can0 102#011C0149027C0305
(1620515261.992664) can0 102#01180144027A02FF
(1620515261.996519) can0 601#2B71600000000000
(1620515261.996652) can0 581#6071600000000000
(1620515261.998011) can0 080#00
(1620515261.999395) can0 581#4077600000000000
(1620515262.000761) can0 581#406C600000000000
(1620515262.000894) can0 420#020001
(1620515262.014800) can0 102#011C014A025C02F3
(1620515262.022399) can0 601#2B71600000000000
(1620515262.022516) can0 581#6071600000000000
(1620515262.035172) can0 102#011C0149027B0305
(1620515262.049029) can0 601#2B71600000000000
(1620515262.049150) can0 581#6071600000000000
(1620515262.056773) can0 102#011A0147027302FF
(1620515262.074404) can0 601#2B71600000000000
(1620515262.074519) can0 581#6071600000000000
(1620515262.077138) can0 102#011C0149027E0309
(1620515262.098535) can0 102#01190145024602F8
(1620515262.098648) can0 080#00
(1620515262.100032) can0 581#4077600000000000
(1620515262.101386) can0 581#406C600000000000
(1620515262.101510) can0 420#020001
(1620515262.102887) can0 601#2B71600000000000
(1620515262.103011) can0 581#6071600000000000
(1620515262.119432) can0 102#011C014A027A02FE
(1620515262.127037) can0 601#2B71600000000000
(1620515262.127291) can0 581#6071600000000000
(1620515262.141030) can0 102#011E014F02750306
(1620515262.152401) can0 601#2B71600000000000
(1620515262.153780) can0 581#6071600000000000
(1620515262.162654) can0 102#01190145027A02FE
(1620515262.179030) can0 601#2B71600000000000
(1620515262.179289) can0 581#6071600000000000
(1620515262.183024) can0 102#011E014E0277030A
(1620515262.199407) can0 080#00
(1620515262.199523) can0 581#4077600000000000
(1620515262.200884) can0 581#406C600000000000
(1620515262.202258) can0 420#020001
(1620515262.204884) can0 102#011A014602770308
(1620515262.205010) can0 601#2B71600000000000
(1620515262.205152) can0 581#6071600000000000
(1620515262.225282) can0 102#01190145027D030A
(1620515262.231648) can0 601#2B71600000000000
(1620515262.231771) can0 581#6071600000000000
(1620515262.246900) can0 102#01190146027D030B
(1620515262.257029) can0 601#2B71600000000000
(1620515262.257142) can0 581#6071600000000000
(1620515262.267284) can0 102#01180144027E030D
(1620515262.283655) can0 601#2B71600000000000
(1620515262.283770) can0 581#6071600000000000
(1620515262.288892) can0 102#011A0146026F0311
(1620515262.299034) can0 080#00
(1620515262.300400) can0 581#4077600000000000
(1620515262.301769) can0 581#406C600000000000
(1620515262.301887) can0 420#020001
(1620515262.309513) can0 601#2B71600000000000
(1620515262.309637) can0 581#6071600000000000
(1620515262.309759) can0 102#011A0145027302FC
(1620515262.331157) can0 102#011E014E027A0302
(1620515262.335020) can0 601#2B71600000000000
(1620515262.336387) can0 581#6071600000000000
(1620515262.352772) can0 102#01190144028B02DA
(1620515262.361655) can0 601#2B71600000000000
(1620515262.361812) can0 581#6071600000000000
(1620515262.373147) can0 102#011A0147027E030D
(1620515262.388276) can0 601#2B71600000000000
(1620515262.388396) can0 581#6071600000000000
(1620515262.394784) can0 102#01190145028102D0
(1620515262.399892) can0 080#00
(1620515262.401263) can0 581#4077600000000000
(1620515262.401394) can0 581#406C600000000000
(1620515262.402758) can0 420#020001
(1620515262.414149) can0 601#2B71600000000000
(1620515262.414319) can0 581#6071600000000000
(1620515262.415636) can0 102#01190145027502FF
(1620515262.437030) can0 102#011E014E02760308
(1620515262.439658) can0 601#2B71600000000000
(1620515262.439769) can0 581#6071600000000000
(1620515262.457410) can0 102#01190145027D0308
(1620515262.466272) can0 601#2B71600000000000
(1620515262.466391) can0 581#6071600000000000
(1620515262.479026) can0 102#01190145027202FE
(1620515262.491653) can0 601#2B71600000000000
(1620515262.493018) can0 581#6071600000000000
(1620515262.500655) can0 102#011D014B028002CC
(1620515262.500772) can0 080#00
(1620515262.500891) can0 581#4077600000000000
(1620515262.502260) can0 581#406C600000000000
(1620515262.502393) can0 420#020001
(1620515262.518776) can0 601#2B71600000000000
(1620515262.518895) can0 581#6071600000000000
(1620515262.521513) can0 102#011A014602760308
(1620515262.542909) can0 102#01180143027A0309
(1620515262.544261) can0 601#2B71600000000000
(1620515262.544396) can0 581#6071600000000000
(1620515262.563281) can0 102#011901450278030B
(1620515262.570902) can0 601#2B71600000000000
(1620515262.571064) can0 581#6071600000000000
(1620515262.584909) can0 102#01190142028302D8
(1620515262.596275) can0 601#2B71600000000000
(1620515262.596428) can0 581#6071600000000000
(1620515262.600264) can0 080#00
(1620515262.601638) can0 581#4077600000000000
(1620515262.601780) can0 581#406C600000000000
(1620515262.603137) can0 420#020001
(1620515262.605761) can0 102#01190144027D030A
(1620515262.622156) can0 601#2B71600000000000
(1620515262.622274) can0 581#6071600000000000
(1620515262.627402) can0 102#01190145027E0310
(1620515262.647528) can0 102#01190145026A02F5
(1620515262.648885) can0 601#2B71600000000000
(1620515262.649011) can0 581#6071600000000000
(1620515262.669169) can0 102#011C014A028802D8
(1620515262.674271) can0 601#2B71600000000000
(1620515262.674409) can0 581#6071600000000000
(1620515262.690774) can0 102#011A014702780302
(1620515262.700900) can0 080#00
(1620515262.702259) can0 581#4077600000000000
(1620515262.702384) can0 581#406C600000000000
(1620515262.703760) can0 420#020001
(1620515262.705139) can0 601#2B71600000000000
(1620515262.705261) can0 581#6071600000000000
(1620515262.711648) can0 102#01180144029102DA
(1620515262.726776) can0 601#2B71600000000000
(1620515262.726888) can0 581#6071600000000000
(1620515262.732015) can0 102#011B0148026F0303
(1620515262.753402) can0 601#2B71600000000000
(1620515262.753628) can0 581#6071600000000000
(1620515262.753648) can0 102#01180143027802FB
(1620515262.775028) can0 102#011C0149028102D0
(1620515262.778903) can0 601#2B71600000000000
(1620515262.779021) can0 581#6071600000000000
(1620515262.795409) can0 102#011A0147027902F6
(1620515262.800521) can0 080#00
(1620515262.801888) can0 581#4077600000000000
(1620515262.803262) can0 581#406C600000000000
(1620515262.803389) can0 420#020001
(1620515262.804767) can0 601#2B71600000000000
(1620515262.804912) can0 581#6071600000000000
(1620515262.816268) can0 102#011D014C027902FF
(1620515262.831406) can0 601#2B71600000000000
(1620515262.831593) can0 581#6071600000000000
(1620515262.837898) can0 102#011E014E028202D1
(1620515262.856780) can0 601#2B71600000000000
(1620515262.858139) can0 581#6071600000000000
(1620515262.859520) can0 102#011A0146027A0301
(1620515262.879658) can0 102#01190144026002EC
(1620515262.883514) can0 601#2B71600000000000
(1620515262.883671) can0 581#6071600000000000
(1620515262.901281) can0 102#011C014A027002F9
(1620515262.901466) can0 080#00
(1620515262.902762) can0 581#4077600000000000
(1620515262.902894) can0 581#406C600000000000
(1620515262.904270) can0 420#020001
(1620515262.909389) can0 601#2B71600000000000
(1620515262.909535) can0 581#6071600000000000
(1620515262.922150) can0 102#011D014D028002D0
(1620515262.936027) can0 601#2B71600000000000
(1620515262.936142) can0 581#6071600000000000
(1620515262.943781) can0 102#011A0146028302D0
(1620515262.961411) can0 601#2B71600000000000
(1620515262.961524) can0 581#6071600000000000
(1620515262.964146) can0 102#0119014502790300
(1620515262.985535) can0 102#0118014502750305
(1620515262.988146) can0 601#2B71600000000000
(1620515262.988315) can0 581#6071600000000000
(1620515263.002177) can0 080#00
(1620515263.002270) can0 581#4077600000000000
(1620515263.003641) can0 581#406C600000000000
(1620515263.005013) can0 420#020001
(1620515263.006386) can0 102#01200147028102D1
(1620515263.014038) can0 601#2B71600000000000
(1620515263.014332) can0 581#6071600000000000
(1620515263.028028) can0 102#01190145026E0301
(1620515263.039410) can0 601#2B71600000000000
(1620515263.040783) can0 581#6071600000000000
(1620515263.049656) can0 102#01180144027402FD
(1620515263.066028) can0 601#2B71600000000000
(1620515263.066140) can0 581#6071600000000000
(1620515263.070022) can0 102#011E014F027A02FB
(1620515263.091406) can0 102#011D014C02740301
(1620515263.091562) can0 601#2B71600000000000
(1620515263.092886) can0 581#6071600000000000
(1620515263.101767) can0 080#00
(1620515263.103135) can0 581#4077600000000000
(1620515263.104509) can0 581#406C600000000000
(1620515263.104643) can0 420#020001
(1620515263.112272) can0 102#01180146027B0304
(1620515263.118637) can0 601#2B71600000000000
(1620515263.118785) can0 581#6071600000000000
(1620515263.133901) can0 102#01190146027A02F9
(1620515263.144019) can0 601#2B71600000000000
(1620515263.144143) can0 581#6071600000000000
(1620515263.154275) can0 102#011C0149027902FF
(1620515263.170657) can0 601#2B71600000000000
(1620515263.170774) can0 581#6071600000000000
(1620515263.175889) can0 102#011C0149028D02E0
(1620515263.196029) can0 601#2B71600000000000
(1620515263.196140) can0 581#6071600000000000
(1620515263.197517) can0 102#01180142029902D2
(1620515263.202641) can0 080#00
(1620515263.202787) can0 581#4077600000000000
(1620515263.204137) can0 581#406C600000000000
(1620515263.205509) can0 420#020001
(1620515263.218136) can0 102#011A0147027A0305
(1620515263.222010) can0 601#2B71600000000000
(1620515263.223384) can0 581#6071600000000000
(1620515263.238522) can0 102#0119014402770315
(1620515263.248647) can0 601#2B71600000000000
(1620515263.248763) can0 581#6071600000000000
(1620515263.260136) can0 102#011B0148027B0315
(1620515263.275276) can0 601#2B71600000000000
(1620515263.275395) can0 581#6071600000000000
(1620515263.281763) can0 102#011B0147027C030E
(1620515263.300648) can0 601#2B71600000000000
(1620515263.300834) can0 581#6071600000000000
(1620515263.302137) can0 102#011A014602760308
(1620515263.302265) can0 080#00
(1620515263.303634) can0 581#4077600000000000
(1620515263.305010) can0 581#406C600000000000
(1620515263.305135) can0 420#020001
(1620515263.324027) can0 102#011A0147024202E3
(1620515263.326649) can0 601#2B71600000000000
(1620515263.326791) can0 581#6071600000000000
(1620515263.344402) can0 102#011B014802770308
(1620515263.353274) can0 601#2B71600000000000
(1620515263.353393) can0 581#6071600000000000
(1620515263.366013) can0 102#01190146027C0308
(1620515263.378649) can0 601#2B71600000000000
(1620515263.380012) can0 581#6071600000000000
(1620515263.386386) can0 102#011A0147028802D3
(1620515263.402773) can0 080#00
(1620515263.404136) can0 581#4077600000000000
(1620515263.405510) can0 581#406C600000000000
(1620515263.405637) can0 420#020001
(1620515263.407014) can0 601#2B71600000000000
(1620515263.407139) can0 581#6071600000000000
(1620515263.408513) can0 102#01190146027F0312
(1620515263.428646) can0 102#01190145027902F9
(1620515263.431264) can0 601#2B71600000000000
(1620515263.431386) can0 581#6071600000000000
(1620515263.450280) can0 102#011D014B028102D0
(1620515263.457892) can0 601#2B71600000000000
(1620515263.458015) can0 581#6071600000000000
(1620515263.471888) can0 102#011A01470277030A
(1620515263.483271) can0 601#2B71600000000000
(1620515263.483414) can0 581#6071600000000000
(1620515263.492269) can0 102#01190145027902FF
(1620515263.503639) can0 080#00
(1620515263.505009) can0 581#4077600000000000
(1620515263.505142) can0 581#406C600000000000
(1620515263.506508) can0 420#020001
(1620515263.509134) can0 601#2B71600000000000
(1620515263.510510) can0 581#6071600000000000
(1620515263.513134) can0 102#011D014C026F0304
(1620515263.534527) can0 102#011A0147027802FE
(1620515263.535886) can0 601#2B71600000000000
(1620515263.536014) can0 581#6071600000000000
(1620515263.556154) can0 102#011D014C028602E0
(1620515263.561259) can0 601#2B71600000000000
(1620515263.562638) can0 581#6071600000000000
(1620515263.576524) can0 102#011B0148025802E9
(1620515263.587900) can0 601#2B71600000000000
(1620515263.588016) can0 581#6071600000000000
(1620515263.598138) can0 102#011D014D027F0310
(1620515263.603265) can0 080#00
(1620515263.604656) can0 581#4077600000000000
(1620515263.606010) can0 581#406C600000000000
(1620515263.607384) can0 420#020001
(1620515263.613761) can0 601#2B71600000000000
(1620515263.613996) can0 581#6071600000000000
(1620515263.619034) can0 102#011D014B027F0315
(1620515263.640410) can0 601#2B71600000000000
(1620515263.640515) can0 102#011A0145027802FD
(1620515263.640646) can0 581#6071600000000000
(1620515263.660780) can0 102#011C014A028302D5
(1620515263.665890) can0 601#2B71600000000000
(1620515263.666012) can0 581#6071600000000000
(1620515263.682401) can0 102#011C0149027B0304
(1620515263.692525) can0 601#2B71600000000000
(1620515263.692644) can0 581#6071600000000000
(1620515263.704009) can0 102#0119014502750305
(1620515263.704134) can0 080#00
(1620515263.705513) can0 581#4077600000000000
(1620515263.705631) can0 581#406C600000000000
(1620515263.707009) can0 420#020001
(1620515263.718396) can0 601#2B71600000000000
(1620515263.718514) can0 581#6071600000000000
(1620515263.724895) can0 102#011A0147027C0305
(1620515263.745029) can0 601#2B71600000000000
(1620515263.745143) can0 581#6071600000000000
(1620515263.745261) can0 102#011A0146027802FE
(1620515263.766653) can0 102#011E014E027F0310
(1620515263.770508) can0 601#2B71600000000000
(1620515263.770677) can0 581#6071600000000000
(1620515263.788274) can0 102#011A0147027C0302
(1620515263.797151) can0 601#2B71600000000000
(1620515263.797265) can0 581#6071600000000000
(1620515263.804860) can0 080#00
(1620515263.804986) can0 581#4077600000000000
(1620515263.806359) can0 581#406C600000000000
(1620515263.807760) can0 420#020001
(1620515263.809146) can0 102#0119014602760308
(1620515263.823029) can0 601#2B71600000000000
(1620515263.823149) can0 581#6071600000000000
(1620515263.830762) can0 102#01190145027E030E
(1620515263.848402) can0 601#2B71600000000000
(1620515263.848516) can0 581#6071600000000000
(1620515263.851156) can0 102#011A0147027D030A
(1620515263.872523) can0 102#011A0146027F0312
(1620515263.875139) can0 601#2B71600000000000
(1620515263.875266) can0 581#6071600000000000
(1620515263.894152) can0 102#011A0147028702E4
(1620515263.900513) can0 601#2B71600000000000
(1620515263.901885) can0 581#6071600000000000
(1620515263.904505) can0 080#00
(1620515263.905887) can0 581#4077600000000000
(1620515263.907265) can0 581#406C600000000000
(1620515263.907390) can0 420#020001
(1620515263.915020) can0 102#011B0148027B0305
(1620515263.927652) can0 601#2B71600000000000
(1620515263.927769) can0 581#6071600000000000
(1620515263.935391) can0 102#011A0147027A0302
(1620515263.953024) can0 601#2B71600000000000
(1620515263.953139) can0 581#6071600000000000
(1620515263.957009) can0 102#011A0146027302FF
(1620515263.978403) can0 102#011D014C025C02F8
(1620515263.979773) can0 601#2B71600000000000
(1620515263.979893) can0 581#6071600000000000
(1620515263.998782) can0 102#011C0149026F0303
(1620515264.005136) can0 080#00
(1620515264.006512) can0 581#4077600000000000
(1620515264.007888) can0 581#406C600000000000
(1620515264.008014) can0 420#020001
(1620515264.009385) can0 601#2B71600000000000
(1620515264.009509) can0 581#6071600000000000
(1620515264.020901) can0 102#011B0148028402DD
(1620515264.031021) can0 601#2B71600000000000
(1620515264.032388) can0 581#6071600000000000
(1620515264.041267) can0 102#011C014A027F030E
(1620515264.057658) can0 601#2B71600000000000
(1620515264.057772) can0 581#6071600000000000
(1620515264.062885) can0 102#011B0148027A0300
(1620515264.083030) can0 102#01180143027C0307
(1620515264.084386) can0 601#2B71600000000000
(1620515264.084514) can0 581#6071600000000000
(1620515264.104652) can0 102#011A014702750305
(1620515264.106011) can0 080#00
(1620515264.106136) can0 581#4077600000000000
(1620515264.107510) can0 581#406C600000000000
(1620515264.108883) can0 420#020001
(1620515264.110258) can0 601#2B71600000000000
(1620515264.110387) can0 581#6071600000000000
(1620515264.125529) can0 102#011A014602750305
(1620515264.135643) can0 601#2B71600000000000
(1620515264.135778) can0 581#6071600000000000
(1620515264.147190) can0 102#01190145026C02FE
(1620515264.162278) can0 601#2B71600000000000
(1620515264.162434) can0 581#6071600000000000
(1620515264.167513) can0 102#011E014E02760308
(1620515264.187650) can0 601#2B71600000000000
(1620515264.187798) can0 581#6071600000000000
(1620515264.189134) can0 102#0119014502790301
(1620515264.205522) can0 080#00
(1620515264.206886) can0 581#4077600000000000
(1620515264.208265) can0 581#406C600000000000
(1620515264.208386) can0 420#020001
(1620515264.209758) can0 102#0119014502790300
(1620515264.213635) can0 601#2B71600000000000
(1620515264.215007) can0 581#6071600000000000
(1620515264.231400) can0 102#01190145027D0309
(1620515264.240274) can0 601#2B71600000000000
(1620515264.240422) can0 581#6071600000000000
(1620515264.253030) can0 102#01190145027C0305
(1620515264.266906) can0 601#2B71600000000000
(1620515264.267019) can0 581#6071600000000000
(1620515264.273385) can0 102#011A014602730300
(1620515264.292276) can0 601#2B71600000000000
(1620515264.292390) can0 581#6071600000000000
(1620515264.295012) can0 102#01190144026D0309
(1620515264.306392) can0 080#00
(1620515264.307762) can0 581#4077600000000000
(1620515264.307892) can0 581#406C600000000000
(1620515264.309258) can0 420#020001
(1620515264.315644) can0 102#01190145027902FD
(1620515264.318259) can0 601#2B71600000000000
(1620515264.318386) can0 581#6071600000000000
(1620515264.337277) can0 102#011D014C02790300
(1620515264.344901) can0 601#2B71600000000000
(1620515264.345017) can0 581#6071600000000000
(1620515264.357637) can0 102#0119014602790308
(1620515264.370275) can0 601#2B71600000000000
(1620515264.371635) can0 581#6071600000000000
(1620515264.379274) can0 102#0119014702770306
(1620515264.396887) can0 601#2B71600000000000
(1620515264.397030) can0 581#6071600000000000
(1620515264.399760) can0 102#011A0147027D0309
(1620515264.407394) can0 080#00
(1620515264.407542) can0 581#4077600000000000
(1620515264.408885) can0 581#406C600000000000
(1620515264.410263) can0 420#020001
(1620515264.421640) can0 102#011B0149028202D2
(1620515264.423019) can0 601#2B71600000000000
(1620515264.423182) can0 581#6071600000000000
(1620515264.442010) can0 102#011A0147027D0308
(1620515264.449638) can0 601#2B71600000000000
(1620515264.449763) can0 581#6071600000000000
(1620515264.463651) can0 102#011A0147027102FA
(1620515264.475025) can0 601#2B71600000000000
(1620515264.475138) can0 581#6071600000000000
(1620515264.485261) can0 102#011C014A027A0301
(1620515264.501657) can0 601#2B71600000000000
(1620515264.501866) can0 581#6071600000000000
(1620515264.505649) can0 102#01190145027802FC
(1620515264.507010) can0 080#00
(1620515264.508385) can0 581#4077600000000000
(1620515264.509762) can0 581#406C600000000000
(1620515264.509907) can0 420#020001
(1620515264.527522) can0 102#011D014C02760308
(1620515264.527708) can0 601#2B71600000000000
(1620515264.527756) can0 581#6071600000000000
(1620515264.547907) can0 102#011A0146027D0308
(1620515264.553014) can0 601#2B71600000000000
(1620515264.554384) can0 581#6071600000000000
(1620515264.569521) can0 102#011A014702790300
(1620515264.579638) can0 601#2B71600000000000
(1620515264.579813) can0 581#6071600000000000
(1620515264.589895) can0 102#011A014702730302
(1620515264.606280) can0 601#2B71600000000000
(1620515264.606433) can0 581#6071600000000000
(1620515264.607760) can0 080#00
(1620515264.609134) can0 581#4077600000000000
(1620515264.609267) can0 581#406C600000000000
(1620515264.610634) can0 420#020001
(1620515264.612009) can0 102#01190145027A02FD
(1620515264.632152) can0 601#2B71600000000000
(1620515264.632268) can0 581#6071600000000000
(1620515264.632402) can0 102#011D014C027E0310
(1620515264.653796) can0 102#011A014602750305
(1620515264.657638) can0 601#2B71600000000000
(1620515264.657766) can0 581#6071600000000000
(1620515264.675403) can0 102#011A014602740308
(1620515264.684263) can0 601#2B71600000000000
(1620515264.684419) can0 581#6071600000000000
(1620515264.695770) can0 102#0119014502750302
(1620515264.708393) can0 080#00
(1620515264.708524) can0 581#4077600000000000
(1620515264.709883) can0 581#406C600000000000
(1620515264.711256) can0 420#020001
(1620515264.711383) can0 601#2B71600000000000
(1620515264.712757) can0 581#6071600000000000
(1620515264.716637) can0 102#01190145027B0303
(1620515264.736773) can0 601#2B71600000000000
(1620515264.736915) can0 581#6071600000000000
(1620515264.738261) can0 102#01190145026A02F8
(1620515264.759653) can0 102#011C0148027102F6
(1620515264.762260) can0 601#2B71600000000000
(1620515264.762391) can0 581#6071600000000000
(1620515264.780032) can0 102#011D014B027C0308
(1620515264.788885) can0 601#2B71600000000000
(1620515264.789008) can0 581#6071600000000000
(1620515264.801634) can0 102#0119014502750301
(1620515264.808017) can0 080#00
(1620515264.809385) can0 581#4077600000000000
(1620515264.810757) can0 581#406C600000000000
(1620515264.810882) can0 420#020001
(1620515264.814757) can0 601#2B71600000000000
(1620515264.814884) can0 581#6071600000000000
(1620515264.822524) can0 102#011A0146027C0302
(1620515264.840149) can0 601#2B71600000000000
(1620515264.841508) can0 581#6071600000000000
(1620515264.844138) can0 102#011A0144027C0308
(1620515264.865528) can0 102#011A014702790300
(1620515264.866884) can0 601#2B71600000000000
(1620515264.867012) can0 581#6071600000000000
(1620515264.885887) can0 102#011A0147029102E0
(1620515264.892265) can0 601#2B71600000000000
(1620515264.893633) can0 581#6071600000000000
(1620515264.907527) can0 102#011A0147027A02FF
(1620515264.908886) can0 080#00
(1620515264.910259) can0 581#4077600000000000
(1620515264.910394) can0 581#406C600000000000
(1620515264.911762) can0 420#020001
(1620515264.919388) can0 601#2B71600000000000
(1620515264.919509) can0 581#6071600000000000
(1620515264.928387) can0 102#011E014E027B0303
(1620515264.944774) can0 601#2B71600000000000
(1620515264.944891) can0 581#6071600000000000
(1620515264.950013) can0 102#011A0147027002F8
(1620515264.970143) can0 102#011C014A028002CD
(1620515264.971509) can0 601#2B71600000000000
(1620515264.971635) can0 581#6071600000000000
(1620515264.991776) can0 102#011A0147028002CD
(1620515264.996897) can0 601#2B71600000000000
(1620515264.997014) can0 581#6071600000000000
(1620515265.009633) can0 080#00
(1620515265.009854) can0 581#4077600000000000
(1620515265.011136) can0 581#406C600000000000
(1620515265.012513) can0 420#020001
(1620515265.012638) can0 102#011B0148027D030A
(1620515265.022770) can0 601#2B71600000000000
(1620515265.024135) can0 581#6071600000000000
(1620515265.034259) can0 102#011A0146026602FC
(1620515265.049399) can0 601#2B71600000000000
(1620515265.049514) can0 581#6071600000000000
(1620515265.054636) can0 102#011C0148028502D8
(1620515265.076030) can0 601#2B71600000000000
(1620515265.076144) can0 581#6071600000000000
(1620515265.076266) can0 102#011C0148026F030D
(1620515265.097651) can0 102#011A0147026F0306
(1620515265.101515) can0 601#2B71600000000000
(1620515265.101639) can0 581#6071600000000000
(1620515265.109260) can0 080#00
(1620515265.110641) can0 581#4077600000000000
(1620515265.112009) can0 581#406C600000000000
(1620515265.112139) can0 420#020001
(1620515265.118511) can0 102#011B014902780305
(1620515265.127401) can0 601#2B71600000000000
(1620515265.127516) can0 581#6071600000000000
(1620515265.138886) can0 102#011A014602770309
(1620515265.154034) can0 601#2B71600000000000
(1620515265.154138) can0 581#6071600000000000
(1620515265.160513) can0 102#011A014702750305
(1620515265.180654) can0 601#2B71600000000000
(1620515265.180799) can0 581#6071600000000000
(1620515265.182134) can0 102#011A0147027002FA
(1620515265.202245) can0 102#011D014C027102F8
(1620515265.206151) can0 601#2B71600000000000
(1620515265.206330) can0 581#6071600000000000
(1620515265.210135) can0 080#00
(1620515265.211510) can0 581#4077600000000000
(1620515265.211642) can0 581#406C600000000000
(1620515265.213026) can0 420#020001
(1620515265.224386) can0 102#011D014C027B0304
(1620515265.232021) can0 601#2B71600000000000
(1620515265.232147) can0 581#6071600000000000
(1620515265.244769) can0 102#0116014B0277030A
(1620515265.258646) can0 601#2B71600000000000
(1620515265.258873) can0 581#6071600000000000
(1620515265.266387) can0 102#011A0147023B02DE
(1620515265.284025) can0 601#2B71600000000000
(1620515265.284144) can0 581#6071600000000000
(1620515265.286760) can0 102#011C014902740301
(1620515265.308149) can0 102#011B0147029902E0
(1620515265.310761) can0 080#00
(1620515265.310883) can0 581#4077600000000000
(1620515265.312262) can0 581#406C600000000000
(1620515265.313633) can0 420#020001
(1620515265.315010) can0 601#2B71600000000000
(1620515265.315135) can0 581#6071600000000000
(1620515265.329024) can0 102#011B0147027202FD
(1620515265.336652) can0 601#2B71600000000000
(1620515265.336824) can0 581#6071600000000000
(1620515265.350637) can0 102#011E014E02790305
(1620515265.363276) can0 601#2B71600000000000
(1620515265.363393) can0 581#6071600000000000
(1620515265.372263) can0 102#011B0148027C0308
(1620515265.388647) can0 601#2B71600000000000
(1620515265.388763) can0 581#6071600000000000
(1620515265.392635) can0 102#011A0146027D0309
(1620515265.410269) can0 080#00
(1620515265.411637) can0 581#4077600000000000
(1620515265.413014) can0 581#406C600000000000
(1620515265.414382) can0 102#01190146027D0308
(1620515265.414510) can0 420#020001
(1620515265.414636) can0 601#2B71600000000000
(1620515265.414758) can0 581#6071600000000000
(1620515265.434901) can0 102#011A0146027B0302
(1620515265.441258) can0 601#2B71600000000000
(1620515265.441447) can0 581#6071600000000000
(1620515265.456527) can0 102#011A0146027902FE
(1620515265.466646) can0 601#2B71600000000000
(1620515265.468021) can0 581#6071600000000000
(1620515265.476885) can0 102#011D014B027E031F
(1620515265.493276) can0 601#2B71600000000000
(1620515265.493391) can0 581#6071600000000000
(1620515265.498513) can0 102#011C0149027D0313
(1620515265.511149) can0 080#00
(1620515265.512526) can0 581#4077600000000000
(1620515265.513885) can0 581#406C600000000000
(1620515265.514014) can0 420#020001
(1620515265.519135) can0 601#2B71600000000000
(1620515265.519262) can0 102#011B014702720301
(1620515265.519383) can0 581#6071600000000000
(1620515265.540774) can0 102#011A0146027F0310
(1620515265.545886) can0 601#2B71600000000000
(1620515265.546114) can0 581#6071600000000000
(1620515265.561147) can0 102#011A0146027802FA
(1620515265.571267) can0 601#2B71600000000000
(1620515265.571410) can0 581#6071600000000000
(1620515265.582770) can0 102#011D014D027A0304
(1620515265.597901) can0 601#2B71600000000000
(1620515265.598015) can0 581#6071600000000000
(1620515265.604382) can0 102#011A0147027D0311
(1620515265.612012) can0 080#00
(1620515265.612137) can0 581#4077600000000000
(1620515265.613510) can0 581#406C600000000000
(1620515265.614887) can0 420#020001
(1620515265.623764) can0 601#2B71600000000000
(1620515265.623918) can0 581#6071600000000000
(1620515265.625261) can0 102#0119014602B102EA
(1620515265.646647) can0 102#011C0149027C0311
(1620515265.649261) can0 601#2B71600000000000
(1620515265.650636) can0 581#6071600000000000
(1620515265.667024) can0 102#011B0148028802D4
(1620515265.675893) can0 601#2B71600000000000
(1620515265.676021) can0 581#6071600000000000
(1620515265.688644) can0 102#011B0149026102F1
(1620515265.702515) can0 601#2B71600000000000
(1620515265.702644) can0 581#6071600000000000
(1620515265.709017) can0 102#011C014A027C0309
(1620515265.711638) can0 080#00
(1620515265.713009) can0 581#4077600000000000
(1620515265.714385) can0 581#406C600000000000
(1620515265.714509) can0 420#020001
(1620515265.728394) can0 601#2B71600000000000
(1620515265.728530) can0 581#6071600000000000
(1620515265.731137) can0 102#011A0146027D0309
(1620515265.751289) can0 102#011B0147028702E4
(1620515265.753889) can0 601#2B71600000000000
(1620515265.754154) can0 581#6071600000000000
(1620515265.772902) can0 102#011C014A027D030D
(1620515265.780513) can0 601#2B71600000000000
(1620515265.780637) can0 581#6071600000000000
(1620515265.794525) can0 102#011C0149027E030C
(1620515265.805892) can0 601#2B71600000000000
(1620515265.807266) can0 581#6071600000000000
(1620515265.812386) can0 080#00
(1620515265.813759) can0 581#4077600000000000
(1620515265.813969) can0 581#406C600000000000
(1620515265.815264) can0 102#011A0147027A02FA
(1620515265.815392) can0 420#020001
(1620515265.833023) can0 601#2B71600000000000
(1620515265.833138) can0 581#6071600000000000
(1620515265.835763) can0 102#011D014B027802FC
(1620515265.857153) can0 102#011D014C027802FE
(1620515265.858511) can0 601#2B71600000000000
(1620515265.858637) can0 581#6071600000000000
(1620515265.878772) can0 102#011E014E0276030C
(1620515265.885137) can0 601#2B71600000000000
(1620515265.885264) can0 581#6071600000000000
(1620515265.899146) can0 102#011A0147027B0306
(1620515265.910517) can0 601#2B71600000000000
(1620515265.910664) can0 581#6071600000000000
(1620515265.913237) can0 080#00
(1620515265.913357) can0 581#4077600000000000
(1620515265.914731) can0 581#406C600000000000
(1620515265.916104) can0 420#020001
(1620515265.919980) can0 102#011A0147028802D2
(1620515265.936401) can0 601#2B71600000000000
(1620515265.937765) can0 581#6071600000000000
(1620515265.941635) can0 102#011A014602770309
(1620515265.963028) can0 102#011A0146027C0309
(1620515265.963143) can0 601#2B71600000000000
(1620515265.963285) can0 581#6071600000000000
(1620515265.983405) can0 102#01190145027802FF
(1620515265.989762) can0 601#2B71600000000000
(1620515265.989890) can0 581#6071600000000000
(1620515266.005023) can0 102#011E014E025B02F2
(1620515266.012639) can0 080#00
(1620515266.014009) can0 581#4077600000000000
(1620515266.015384) can0 581#406C600000000000
(1620515266.015508) can0 420#020001
(1620515266.016882) can0 601#2B71600000000000
(1620515266.017015) can0 581#6071600000000000
(1620515266.025896) can0 102#011D014C027D0309
(1620515266.041027) can0 601#2B71600000000000
(1620515266.041136) can0 581#6071600000000000
(1620515266.047511) can0 102#011A0147027B0306
(1620515266.067650) can0 601#2B71600000000000
(1620515266.067769) can0 581#6071600000000000
(1620515266.067883) can0 102#011B014802740304
(1620515266.089276) can0 102#011A014702770306
(1620515266.093152) can0 601#2B71600000000000
(1620515266.093268) can0 581#6071600000000000
(1620515266.110898) can0 102#011A0146027802FD
(1620515266.113511) can0 080#00
(1620515266.114908) can0 581#4077600000000000
(1620515266.115016) can0 581#406C600000000000
(1620515266.116385) can0 420#020001
(1620515266.120262) can0 601#2B71600000000000
(1620515266.120384) can0 581#6071600000000000
(1620515266.131761) can0 102#011D014C027C0308
(1620515266.145645) can0 601#2B71600000000000
(1620515266.145762) can0 581#6071600000000000
(1620515266.153384) can0 102#011B0148028102D0
(1620515266.172272) can0 601#2B71600000000000
(1620515266.172418) can0 581#6071600000000000
(1620515266.173761) can0 102#011B0148027A02FF
(1620515266.195157) can0 102#011E0150028302D3
(1620515266.197763) can0 601#2B71600000000000
(1620515266.197891) can0 581#6071600000000000
(1620515266.214269) can0 080#00
(1620515266.214387) can0 581#4077600000000000
(1620515266.215758) can0 581#406C600000000000
(1620515266.215892) can0 102#011A0145023202D9
(1620515266.217259) can0 420#020001
(1620515266.223637) can0 601#2B71600000000000
(1620515266.223761) can0 581#6071600000000000
(1620515266.237647) can0 102#011C0149027B0304
(1620515266.250275) can0 601#2B71600000000000
(1620515266.250389) can0 581#6071600000000000
(1620515266.258010) can0 102#011B014802730301
(1620515266.275652) can0 601#2B71600000000000
(1620515266.277029) can0 581#6071600000000000
(1620515266.279762) can0 102#01190146028702DF
(1620515266.301150) can0 102#011C0149027302FD
(1620515266.302516) can0 601#2B71600000000000
(1620515266.302638) can0 581#6071600000000000
(1620515266.314021) can0 080#00
(1620515266.315388) can0 581#4077600000000000
(1620515266.316759) can0 581#406C600000000000
(1620515266.316890) can0 420#020001
(1620515266.322018) can0 102#011D014C029802D6
(1620515266.328391) can0 601#2B71600000000000
(1620515266.328515) can0 581#6071600000000000
(1620515266.342385) can0 102#011B0148027202FB
(1620515266.355025) can0 601#2B71600000000000
(1620515266.355227) can0 581#6071600000000000
(1620515266.364019) can0 102#011E014D027D0309
(1620515266.380391) can0 601#2B71600000000000
(1620515266.380523) can0 581#6071600000000000
(1620515266.385640) can0 102#011B0147027002F9
(1620515266.405776) can0 102#011D014B028402D4
(1620515266.407136) can0 601#2B71600000000000
(1620515266.407280) can0 581#6071600000000000
(1620515266.414886) can0 080#00
(1620515266.415018) can0 581#4077600000000000
(1620515266.416385) can0 581#406C600000000000
(1620515266.417761) can0 420#020001
(1620515266.427901) can0 102#011B0148027202FD
(1620515266.433016) can0 601#2B71600000000000
(1620515266.433141) can0 581#6071600000000000
(1620515266.448261) can0 102#011E014C027A0302
(1620515266.458396) can0 601#2B71600000000000
(1620515266.458513) can0 581#6071600000000000
(1620515266.469899) can0 102#011B0148027202FD
(1620515266.485015) can0 601#2B71600000000000
(1620515266.485153) can0 581#6071600000000000
(1620515266.490266) can0 102#011E014D02750303
(1620515266.510403) can0 601#2B71600000000000
(1620515266.511757) can0 581#6071600000000000
(1620515266.511887) can0 102#011C0149028202D2
(1620515266.514510) can0 080#00
(1620515266.515887) can0 581#4077600000000000
(1620515266.517257) can0 581#406C600000000000
(1620515266.517383) can0 420#020001
(1620515266.532534) can0 102#011B014802730301
(1620515266.537645) can0 601#2B71600000000000
(1620515266.537771) can0 581#6071600000000000
(1620515266.554138) can0 102#011A01460277030A
(1620515266.563019) can0 601#2B71600000000000
(1620515266.563172) can0 581#6071600000000000
(1620515266.574522) can0 102#011C014902770308
(1620515266.589641) can0 601#2B71600000000000
(1620515266.589785) can0 581#6071600000000000
(1620515266.596138) can0 102#011A014702740301
(1620515266.615027) can0 080#00
(1620515266.616390) can0 581#4077600000000000
(1620515266.617757) can0 102#01190145027B0303
(1620515266.617884) can0 581#406C600000000000
(1620515266.618009) can0 420#020001
(1620515266.619382) can0 601#2B71600000000000
(1620515266.619508) can0 581#6071600000000000
(1620515266.638404) can0 102#011A0146027902FE
(1620515266.641030) can0 601#2B71600000000000
(1620515266.641141) can0 581#6071600000000000
(1620515266.660031) can0 102#011D014C027802FF
(1620515266.667661) can0 601#2B71600000000000
(1620515266.667766) can0 581#6071600000000000
(1620515266.680386) can0 102#011E014E02740300
(1620515266.693024) can0 601#2B71600000000000
(1620515266.694385) can0 581#6071600000000000
(1620515266.702013) can0 102#011A0145027302FF
(1620515266.715897) can0 080#00
(1620515266.716013) can0 581#4077600000000000
(1620515266.717387) can0 581#406C600000000000
(1620515266.718760) can0 420#020001
(1620515266.720138) can0 601#2B71600000000000
(1620515266.720257) can0 581#6071600000000000
(1620515266.722883) can0 102#011E014E02750305
(1620515266.744275) can0 102#011B014702750302
(1620515266.745636) can0 601#2B71600000000000
(1620515266.745886) can0 581#6071600000000000
(1620515266.764683) can0 102#011A0147026302E8
(1620515266.772268) can0 601#2B71600000000000
(1620515266.772400) can0 581#6071600000000000
(1620515266.786273) can0 102#011C0149027F030D
(1620515266.797639) can0 601#2B71600000000000
(1620515266.797762) can0 581#6071600000000000
(1620515266.807903) can0 102#011C0148026402EA
(1620515266.815524) can0 080#00
(1620515266.816887) can0 581#4077600000000000
(1620515266.818262) can0 581#406C600000000000
(1620515266.818395) can0 420#020001
(1620515266.823510) can0 601#2B71600000000000
(1620515266.824883) can0 581#6071600000000000
(1620515266.828760) can0 102#011E014D02750305
(1620515266.850154) can0 102#011B014802750303
(1620515266.850266) can0 601#2B71600000000000
(1620515266.850390) can0 581#6071600000000000
(1620515266.870527) can0 102#011B0148027A0300
(1620515266.875642) can0 601#2B71600000000000
(1620515266.877010) can0 581#6071600000000000
(1620515266.892145) can0 102#011A014602760304
(1620515266.902265) can0 601#2B71600000000000
(1620515266.902390) can0 581#6071600000000000
(1620515266.912537) can0 102#011A0146027902FD
(1620515266.916408) can0 080#00
(1620515266.917764) can0 581#4077600000000000
(1620515266.917888) can0 581#406C600000000000
(1620515266.919261) can0 420#020001
(1620515266.928136) can0 601#2B71600000000000
(1620515266.928264) can0 581#6071600000000000
(1620515266.934644) can0 102#011E014E027A0302
(1620515266.954775) can0 601#2B71600000000000
(1620515266.954887) can0 581#6071600000000000
(1620515266.955012) can0 102#0118014402770309
(1620515266.976404) can0 102#011A0146027002F8
(1620515266.980267) can0 601#2B71600000000000
(1620515266.980390) can0 581#6071600000000000
(1620515266.996781) can0 102#011C014802C302ED
(1620515267.006902) can0 601#2B71600000000000
(1620515267.007014) can0 581#6071600000000000
(1620515267.017155) can0 080#00
(1620515267.017304) can0 581#4077600000000000
(1620515267.018638) can0 102#011D014D027002F9
(1620515267.018761) can0 581#406C600000000000
(1620515267.020136) can0 420#020001
(1620515267.032771) can0 601#2B71600000000000
(1620515267.032890) can0 581#6071600000000000
(1620515267.039271) can0 102#011D014C0277030C
(1620515267.059406) can0 601#2B71600000000000
(1620515267.059521) can0 581#6071600000000000
(1620515267.060885) can0 102#011B014802750303
(1620515267.082278) can0 102#011A014702770308
(1620515267.084891) can0 601#2B71600000000000
(1620515267.085043) can0 581#6071600000000000
(1620515267.102655) can0 102#011A0146027B0304
(1620515267.111528) can0 601#2B71600000000000
(1620515267.111649) can0 581#6071600000000000
(1620515267.116768) can0 080#00
(1620515267.118136) can0 581#4077600000000000
(1620515267.119511) can0 581#406C600000000000
(1620515267.119641) can0 420#020001
(1620515267.123510) can0 102#011B0148027C030B
(1620515267.137402) can0 601#2B71600000000000
(1620515267.137519) can0 581#6071600000000000
(1620515267.145145) can0 102#011A01460277030C
(1620515267.162778) can0 601#2B71600000000000
(1620515267.162895) can0 581#6071600000000000
(1620515267.166782) can0 102#011A0146028602DC
(1620515267.186905) can0 102#011C014802740303
(1620515267.189516) can0 601#2B71600000000000
(1620515267.189650) can0 581#6071600000000000
(1620515267.208527) can0 102#011A0147027C0308
(1620515267.214910) can0 601#2B71600000000000
(1620515267.216302) can0 581#6071600000000000
(1620515267.217663) can0 080#00
(1620515267.217772) can0 581#4077600000000000
(1620515267.219185) can0 581#406C600000000000
(1620515267.220515) can0 420#020001
(1620515267.229411) can0 102#011A014602760309
(1620515267.242033) can0 601#2B71600000000000
(1620515267.242316) can0 581#6071600000000000
(1620515267.251027) can0 102#011A0146027C0303
(1620515267.267416) can0 601#2B71600000000000
(1620515267.267514) can0 581#6071600000000000
(1620515267.271404) can0 102#011A0147028402D5
(1620515267.292781) can0 102#011B0148028302D5
(1620515267.294138) can0 601#2B71600000000000
(1620515267.294265) can0 581#6071600000000000
(1620515267.314407) can0 102#011C014902790300
(1620515267.318274) can0 080#00
(1620515267.318395) can0 581#4077600000000000
(1620515267.319761) can0 581#406C600000000000
(1620515267.321134) can0 420#020001
(1620515267.321259) can0 601#2B71600000000000
(1620515267.322634) can0 581#6071600000000000
(1620515267.335286) can0 102#01190144024902E5
(1620515267.345406) can0 601#2B71600000000000
(1620515267.346774) can0 581#6071600000000000
(1620515267.356899) can0 102#011C014A027802FD
(1620515267.372028) can0 601#2B71600000000000
(1620515267.372145) can0 581#6071600000000000
(1620515267.377261) can0 102#011E014E02770308
(1620515267.398658) can0 601#2B71600000000000
(1620515267.398769) can0 581#6071600000000000
(1620515267.398899) can0 102#011C0148028B02DB
(1620515267.417779) can0 080#00
(1620515267.419142) can0 581#4077600000000000
(1620515267.419298) can0 102#011C0149027C0305
(1620515267.420637) can0 581#406C600000000000
(1620515267.420759) can0 420#020001
(1620515267.424643) can0 601#2B71600000000000
(1620515267.424762) can0 581#6071600000000000
(1620515267.441147) can0 102#011C014B0277030C
(1620515267.450024) can0 601#2B71600000000000
(1620515267.450145) can0 581#6071600000000000
(1620515267.461523) can0 102#011B0148026F0306
(1620515267.476653) can0 601#2B71600000000000
(1620515267.476768) can0 581#6071600000000000
(1620515267.483142) can0 102#011B0148027802FE
(1620515267.502029) can0 601#2B71600000000000
(1620515267.502151) can0 581#6071600000000000
(1620515267.503509) can0 102#011D014C02750308
(1620515267.518652) can0 080#00
(1620515267.520020) can0 581#4077600000000000
(1620515267.520144) can0 581#406C600000000000
(1620515267.521510) can0 420#020001
(1620515267.525383) can0 102#011A0146028102D2
(1620515267.528013) can0 601#2B71600000000000
(1620515267.529385) can0 581#6071600000000000
(1620515267.545781) can0 102#011B0149027E0310
(1620515267.554647) can0 601#2B71600000000000
(1620515267.554762) can0 581#6071600000000000
(1620515267.567400) can0 102#011B0148029B02E8
(1620515267.581277) can0 601#2B71600000000000
(1620515267.581421) can0 581#6071600000000000
(1620515267.589013) can0 102#011C014A027D030A
(1620515267.606651) can0 601#2B71600000000000
(1620515267.606793) can0 581#6071600000000000
(1620515267.609383) can0 102#011A0147027B0306
(1620515267.618261) can0 080#00
(1620515267.619634) can0 581#4077600000000000
(1620515267.621028) can0 581#406C600000000000
(1620515267.621142) can0 420#020001
(1620515267.631296) can0 102#011A014702760318
(1620515267.632638) can0 601#2B71600000000000
(1620515267.632768) can0 581#6071600000000000
(1620515267.651653) can0 102#0119014602780300
(1620515267.659275) can0 601#2B71600000000000
(1620515267.659419) can0 581#6071600000000000
(1620515267.673279) can0 102#011A0146028902D6
(1620515267.684649) can0 601#2B71600000000000
(1620515267.686011) can0 581#6071600000000000
(1620515267.693634) can0 102#011C0149027A0302
(1620515267.711277) can0 601#2B71600000000000
(1620515267.711423) can0 581#6071600000000000
(1620515267.715275) can0 102#011A01460277030C
(1620515267.719182) can0 080#00
(1620515267.720509) can0 581#4077600000000000
(1620515267.720635) can0 581#406C600000000000
(1620515267.722009) can0 420#020001
(1620515267.735886) can0 102#011B0148027C0308
(1620515267.737257) can0 601#2B71600000000000
(1620515267.737493) can0 581#6071600000000000
(1620515267.757529) can0 102#011A014602790302
(1620515267.763886) can0 601#2B71600000000000
(1620515267.764013) can0 581#6071600000000000
(1620515267.779138) can0 102#011B0148027902FD
(1620515267.789275) can0 601#2B71600000000000
(1620515267.789387) can0 581#6071600000000000
(1620515267.799516) can0 102#011E014D027C0304
(1620515267.815902) can0 601#2B71600000000000
(1620515267.816015) can0 581#6071600000000000
(1620515267.819887) can0 080#00
(1620515267.820016) can0 581#4077600000000000
(1620515267.821387) can0 102#011C014802750304
(1620515267.821526) can0 581#406C600000000000
(1620515267.822888) can0 420#020001
(1620515267.841775) can0 601#2B71600000000000
(1620515267.841894) can0 102#011A0147027B0305
(1620515267.842013) can0 581#6071600000000000
(1620515267.863401) can0 102#011B0149027B0303
(1620515267.867259) can0 601#2B71600000000000
(1620515267.868633) can0 581#6071600000000000
(1620515267.883774) can0 102#011B014802790301
(1620515267.893897) can0 601#2B71600000000000
(1620515267.894015) can0 581#6071600000000000
(1620515267.905386) can0 102#011A0146025A02E1
(1620515267.919279) can0 080#00
(1620515267.920636) can0 581#4077600000000000
(1620515267.922016) can0 581#406C600000000000
(1620515267.922137) can0 420#020001
(1620515267.923516) can0 601#2B71600000000000
(1620515267.923646) can0 581#6071600000000000
(1620515267.926260) can0 102#011B0147027902FD
(1620515267.946390) can0 601#2B71600000000000
(1620515267.946523) can0 581#6071600000000000
(1620515267.947882) can0 102#011E014D026502F9
(1620515267.968029) can0 102#011E014F028702E1
(1620515267.971885) can0 601#2B71600000000000
(1620515267.972011) can0 581#6071600000000000
(1620515267.989652) can0 102#011C014A028602DD
(1620515267.998523) can0 601#2B71600000000000
(1620515267.998671) can0 581#6071600000000000
(1620515268.011261) can0 102#011C014902790302
(1620515268.020137) can0 080#00
(1620515268.021516) can0 581#4077600000000000
(1620515268.021637) can0 581#406C600000000000
(1620515268.023012) can0 420#020001
(1620515268.024384) can0 601#2B71600000000000
(1620515268.024511) can0 581#6071600000000000
(1620515268.032146) can0 102#011B0148028002D1
(1620515268.049770) can0 601#2B71600000000000
(1620515268.051137) can0 581#6071600000000000
(1620515268.052510) can0 102#011B0148027D0309
(1620515268.073930) can0 102#011A014A027802FB
(1620515268.076513) can0 601#2B71600000000000
(1620515268.076637) can0 581#6071600000000000
(1620515268.095527) can0 102#011E014D027802FF
(1620515268.101887) can0 601#2B71600000000000
(1620515268.103260) can0 581#6071600000000000
(1620515268.115898) can0 102#011F014F024E02F1
(1620515268.121011) can0 080#00
(1620515268.121153) can0 581#4077600000000000
(1620515268.122507) can0 581#406C600000000000
(1620515268.123886) can0 420#020001
(1620515268.129010) can0 601#2B71600000000000
(1620515268.129144) can0 581#6071600000000000
(1620515268.138013) can0 102#011E014E027802F5
(1620515268.154395) can0 601#2B71600000000000
(1620515268.154619) can0 581#6071600000000000
(1620515268.158388) can0 102#011E014E027B0304
(1620515268.179778) can0 102#011B0148026A02F8
(1620515268.181141) can0 601#2B71600000000000
(1620515268.181260) can0 581#6071600000000000
(1620515268.201396) can0 102#011E014E027A0303
(1620515268.206512) can0 601#2B71600000000000
(1620515268.206638) can0 581#6071600000000000
(1620515268.220520) can0 080#00
(1620515268.221885) can0 581#4077600000000000
(1620515268.222014) can0 102#011A0145027A0300
(1620515268.223384) can0 581#406C600000000000
(1620515268.223518) can0 420#020001
(1620515268.232397) can0 601#2B71600000000000
(1620515268.233758) can0 581#6071600000000000
(1620515268.242637) can0 102#011A0145027802F8
(1620515268.259025) can0 601#2B71600000000000
(1620515268.259142) can0 581#6071600000000000
(1620515268.264261) can0 102#011E014E026702FD
(1620515268.285650) can0 601#2B71600000000000
(1620515268.285766) can0 581#6071600000000000
(1620515268.285940) can0 102#011E014E02740300
(1620515268.306026) can0 102#011C014902770308
(1620515268.311139) can0 601#2B71600000000000
(1620515268.311295) can0 581#6071600000000000
(1620515268.321394) can0 080#00
(1620515268.321562) can0 581#4077600000000000
(1620515268.322897) can0 581#406C600000000000
(1620515268.324259) can0 420#020001
(1620515268.328136) can0 102#011A0147027D0309
(1620515268.337016) can0 601#2B71600000000000
(1620515268.337135) can0 581#6071600000000000
(1620515268.348519) can0 102#011A0147027902FE
(1620515268.363648) can0 601#2B71600000000000
(1620515268.363766) can0 581#6071600000000000
(1620515268.370135) can0 102#011F0150026002EE
(1620515268.389039) can0 601#2B71600000000000
(1620515268.389266) can0 581#6071600000000000
(1620515268.390636) can0 102#011E014E026502F9
(1620515268.412026) can0 102#011E014D027A0302
(1620515268.415885) can0 601#2B71600000000000
(1620515268.416013) can0 581#6071600000000000
(1620515268.421132) can0 080#00
(1620515268.422515) can0 581#4077600000000000
(1620515268.423887) can0 581#406C600000000000
(1620515268.424011) can0 420#020001
(1620515268.432887) can0 102#011A014602770302
(1620515268.441768) can0 601#2B71600000000000
(1620515268.441901) can0 581#6071600000000000
(1620515268.454514) can0 102#011B0146027D0308
(1620515268.467171) can0 601#2B71600000000000
(1620515268.468509) can0 581#6071600000000000
(1620515268.474887) can0 102#011A0146027B0308
(1620515268.493774) can0 601#2B71600000000000
(1620515268.493889) can0 581#6071600000000000
(1620515268.496509) can0 102#011A0146027202FB
(1620515268.517901) can0 102#011E014E028002D1
(1620515268.520529) can0 601#2B71600000000000
(1620515268.520667) can0 581#6071600000000000
(1620515268.522012) can0 080#00
(1620515268.523431) can0 581#4077600000000000
(1620515268.523510) can0 581#406C600000000000
(1620515268.524881) can0 420#020001
(1620515268.538730) can0 102#011C0149027D030A
(1620515268.546367) can0 601#2B71600000000000
(1620515268.546493) can0 581#6071600000000000
(1620515268.560397) can0 102#011A0147027802FF
(1620515268.571801) can0 601#2B71600000000000
(1620515268.571986) can0 581#6071600000000000
(1620515268.580800) can0 102#011F014F02760306
(1620515268.598412) can0 601#2B71600000000000
(1620515268.598517) can0 581#6071600000000000
(1620515268.602422) can0 102#011C0149028402D9
(1620515268.622528) can0 080#00
(1620515268.622646) can0 102#011C014A02AA02DC
(1620515268.622763) can0 581#4077600000000000
(1620515268.624135) can0 581#406C600000000000
(1620515268.625510) can0 420#020001
(1620515268.625638) can0 601#2B71600000000000
(1620515268.627006) can0 581#6071600000000000
(1620515268.644653) can0 102#011C0149027302FC
(1620515268.649766) can0 601#2B71600000000000
(1620515268.651133) can0 581#6071600000000000
(1620515268.665023) can0 102#011E014E027102FF
(1620515268.676400) can0 601#2B71600000000000
(1620515268.676517) can0 581#6071600000000000
(1620515268.686636) can0 102#01200147027A0303
(1620515268.703029) can0 601#2B71600000000000
(1620515268.703167) can0 581#6071600000000000
(1620515268.707023) can0 102#011B0149028102D0
(1620515268.722139) can0 080#00
(1620515268.723511) can0 581#4077600000000000
(1620515268.724885) can0 581#406C600000000000
(1620515268.725014) can0 420#020001
(1620515268.728885) can0 601#2B71600000000000
(1620515268.729018) can0 102#011B0140027B0301
(1620515268.729136) can0 581#6071600000000000
(1620515268.749281) can0 102#011A0147026A02F3
(1620515268.754390) can0 601#2B71600000000000
(1620515268.754525) can0 581#6071600000000000
(1620515268.770899) can0 102#011D014B027402FA
(1620515268.781018) can0 601#2B71600000000000
(1620515268.781140) can0 581#6071600000000000
(1620515268.792518) can0 102#011E014E027B0308
(1620515268.806391) can0 601#2B71600000000000
(1620515268.806525) can0 581#6071600000000000
(1620515268.812888) can0 102#0116014A02AF02F5
(1620515268.823022) can0 080#00
(1620515268.824384) can0 581#4077600000000000
(1620515268.824509) can0 581#406C600000000000
(1620515268.825885) can0 420#020001
(1620515268.833510) can0 601#2B71600000000000
(1620515268.833637) can0 581#6071600000000000
(1620515268.833756) can0 102#011F014F027A0302
(1620515268.855161) can0 102#011B0148027902FD
(1620515268.859022) can0 601#2B71600000000000
(1620515268.859163) can0 581#6071600000000000
(1620515268.876764) can0 102#011E014D02770310
(1620515268.885637) can0 601#2B71600000000000
(1620515268.885768) can0 581#6071600000000000
(1620515268.897148) can0 102#011B0148027302FF
(1620515268.911027) can0 601#2B71600000000000
(1620515268.911142) can0 581#6071600000000000
(1620515268.918760) can0 102#011F0153027002FA
(1620515268.922634) can0 080#00
(1620515268.924015) can0 581#4077600000000000
(1620515268.925389) can0 581#406C600000000000
(1620515268.925513) can0 420#020001
(1620515268.936896) can0 601#2B71600000000000
(1620515268.937014) can0 581#6071600000000000
(1620515268.939634) can0 102#011E014E027C0303
(1620515268.961024) can0 102#011B014702790300
(1620515268.963634) can0 601#2B71600000000000
(1620515268.963759) can0 581#6071600000000000
(1620515268.982657) can0 102#011A0146028202D1
(1620515268.989041) can0 601#2B71600000000000
(1620515268.989263) can0 581#6071600000000000
(1620515269.003137) can0 102#011C014802660303
(1620515269.015765) can0 601#2B71600000000000
(1620515269.015893) can0 581#6071600000000000
(1620515269.023520) can0 080#00
(1620515269.023660) can0 102#011A0146026F0303
(1620515269.025009) can0 581#4077600000000000
(1620515269.025140) can0 581#406C600000000000
(1620515269.026511) can0 420#020001
(1620515269.041652) can0 601#2B71600000000000
(1620515269.041765) can0 581#6071600000000000
(1620515269.045636) can0 102#011A0146027902FF
(1620515269.067027) can0 102#011E014E027F0309
(1620515269.067141) can0 601#2B71600000000000
(1620515269.068511) can0 581#6071600000000000
(1620515269.087401) can0 102#011B014802760309
(1620515269.093766) can0 601#2B71600000000000
(1620515269.093888) can0 581#6071600000000000
(1620515269.109038) can0 102#011A0147028602DD
(1620515269.120524) can0 601#2B71600000000000
(1620515269.120637) can0 581#6071600000000000
(1620515269.123262) can0 080#00
(1620515269.124634) can0 581#4077600000000000
(1620515269.126005) can0 581#406C600000000000
(1620515269.127382) can0 420#020001
(1620515269.130009) can0 102#011C0149027E0310
(1620515269.146398) can0 601#2B71600000000000
(1620515269.146517) can0 581#6071600000000000
(1620515269.150386) can0 102#011B0148028202D5
(1620515269.171779) can0 102#011C0149027A0303
(1620515269.171890) can0 601#2B71600000000000
(1620515269.173261) can0 581#6071600000000000
(1620515269.193401) can0 102#011B0148027302FD
(1620515269.198513) can0 601#2B71600000000000
(1620515269.198641) can0 581#6071600000000000
(1620515269.213767) can0 102#011F014F02740301
(1620515269.223889) can0 080#00
(1620515269.225260) can0 581#4077600000000000
(1620515269.226636) can0 581#406C600000000000
(1620515269.226762) can0 420#020001
(1620515269.228137) can0 601#2B71600000000000
(1620515269.228264) can0 581#6071600000000000
(1620515269.235893) can0 102#011B0148027B0310
(1620515269.251029) can0 601#2B71600000000000
(1620515269.251140) can0 581#6071600000000000
(1620515269.256263) can0 102#011A014602760309
(1620515269.276402) can0 601#2B71600000000000
(1620515269.276515) can0 581#6071600000000000
(1620515269.277884) can0 102#011B014602780300
(1620515269.299240) can0 102#011A014602A002D1
(1620515269.303105) can0 601#2B71600000000000
(1620515269.303233) can0 581#6071600000000000
(1620515269.319618) can0 102#011B0149027102FA
(1620515269.324763) can0 080#00
(1620515269.326138) can0 581#4077600000000000
(1620515269.326265) can0 581#406C600000000000
(1620515269.327633) can0 420#020001
(1620515269.329011) can0 601#2B71600000000000
(1620515269.329135) can0 581#6071600000000000
(1620515269.340521) can0 102#011E014902790301
(1620515269.354397) can0 601#2B71600000000000
(1620515269.354514) can0 581#6071600000000000
(1620515269.362137) can0 102#011B0148027C0303
(1620515269.381039) can0 601#2B71600000000000
(1620515269.381273) can0 581#6071600000000000
(1620515269.383886) can0 102#011B0155027D030B
(1620515269.404015) can0 102#011B014802780301
(1620515269.406637) can0 601#2B71600000000000
(1620515269.406760) can0 581#6071600000000000
(1620515269.424402) can0 080#00
(1620515269.425763) can0 102#011A01470276030A
(1620515269.425884) can0 581#4077600000000000
(1620515269.427260) can0 581#406C600000000000
(1620515269.427391) can0 420#020001
(1620515269.432510) can0 601#2B71600000000000
(1620515269.433887) can0 581#6071600000000000
(1620515269.446509) can0 102#011B0145027B0302
(1620515269.459150) can0 601#2B71600000000000
(1620515269.459269) can0 581#6071600000000000
(1620515269.468146) can0 102#011B014902760305
(1620515269.485767) can0 601#2B71600000000000
(1620515269.485929) can0 581#6071600000000000
(1620515269.488509) can0 102#011B014802770303
(1620515269.509900) can0 102#011B014802770308
(1620515269.511262) can0 601#2B71600000000000
(1620515269.511385) can0 581#6071600000000000
(1620515269.525260) can0 080#00
(1620515269.526633) can0 581#4077600000000000
(1620515269.526760) can0 581#406C600000000000
(1620515269.528134) can0 420#020001
(1620515269.530761) can0 102#011B0148027802FC
(1620515269.537142) can0 601#2B71600000000000
(1620515269.537286) can0 581#6071600000000000
(1620515269.552422) can0 102#01200146027802FA
(1620515269.563767) can0 601#2B71600000000000
(1620515269.563921) can0 581#6071600000000000
(1620515269.572760) can0 102#011E014E02790300
(1620515269.589154) can0 601#2B71600000000000
(1620515269.589263) can0 581#6071600000000000
(1620515269.594384) can0 102#011A0145027D030A
(1620515269.615782) can0 102#011B01480277030A
(1620515269.615893) can0 601#2B71600000000000
(1620515269.616025) can0 581#6071600000000000
(1620515269.626154) can0 080#00
(1620515269.626270) can0 581#4077600000000000
(1620515269.627635) can0 581#406C600000000000
(1620515269.629014) can0 420#020001
(1620515269.636636) can0 102#011B0148027902FE
(1620515269.641760) can0 601#2B71600000000000
(1620515269.641889) can0 581#6071600000000000
(1620515269.658273) can0 102#011F0150027102FB
(1620515269.668404) can0 601#2B71600000000000
(1620515269.668518) can0 581#6071600000000000
(1620515269.678635) can0 102#011E014D027202FE
(1620515269.693763) can0 601#2B71600000000000
(1620515269.693890) can0 581#6071600000000000
(1620515269.700266) can0 102#011E014F027002F8
(1620515269.720399) can0 601#2B71600000000000
(1620515269.720518) can0 581#6071600000000000
(1620515269.720637) can0 102#011E014E02760309
(1620515269.725761) can0 080#00
(1620515269.727143) can0 581#4077600000000000
(1620515269.728510) can0 581#406C600000000000
(1620515269.728639) can0 420#020001
(1620515269.742521) can0 102#011B0148027002F8
(1620515269.746395) can0 601#2B71600000000000
(1620515269.746528) can0 581#6071600000000000
(1620515269.762893) can0 102#011D014C027202F9
(1620515269.771765) can0 601#2B71600000000000
(1620515269.771890) can0 581#6071600000000000
(1620515269.784528) can0 102#011F014F02790301
(1620515269.798400) can0 601#2B71600000000000
(1620515269.798517) can0 581#6071600000000000
(1620515269.806135) can0 102#011B01480277030C
(1620515269.823777) can0 601#2B71600000000000
(1620515269.825137) can0 581#6071600000000000
(1620515269.826509) can0 080#00
(1620515269.826631) can0 102#011C014A02760308
(1620515269.826758) can0 581#4077600000000000
(1620515269.828138) can0 581#406C600000000000
(1620515269.829513) can0 420#020001
(1620515269.848386) can0 102#011B0148026C02FF
(1620515269.849761) can0 601#2B71600000000000
(1620515269.851136) can0 581#6071600000000000
(1620515269.868787) can0 102#011F014F028802D4
(1620515269.876413) can0 601#2B71600000000000
(1620515269.876545) can0 581#6071600000000000
(1620515269.890389) can0 102#011D014B02780300
(1620515269.903018) can0 601#2B71600000000000
(1620515269.903183) can0 581#6071600000000000
(1620515269.910773) can0 102#011B0148027C0301
(1620515269.925886) can0 080#00
(1620515269.927262) can0 581#4077600000000000
(1620515269.928634) can0 581#406C600000000000
(1620515269.930008) can0 420#020001
(1620515269.930139) can0 601#2B71600000000000
(1620515269.931509) can0 581#6071600000000000
(1620515269.932883) can0 102#011B0147027E030E
(1620515269.953028) can0 102#011D014B02780301
(1620515269.954387) can0 601#2B71600000000000
(1620515269.954512) can0 581#6071600000000000
(1620515269.974640) can0 102#0119014502750304
(1620515269.981021) can0 601#2B71600000000000
(1620515269.981140) can0 581#6071600000000000
(1620515269.996273) can0 102#011B0148027B02FA
(1620515270.006391) can0 601#2B71600000000000
(1620515270.007758) can0 581#6071600000000000
(1620515270.016651) can0 102#011E014E02750303
(1620515270.026792) can0 080#00
(1620515270.028142) can0 581#4077600000000000
(1620515270.028276) can0 581#406C600000000000
(1620515270.029637) can0 420#020001
(1620515270.033527) can0 601#2B71600000000000
(1620515270.033639) can0 581#6071600000000000
(1620515270.037514) can0 102#011B014802760309
(1620515270.058899) can0 601#2B71600000000000
(1620515270.059047) can0 581#6071600000000000
(1620515270.059176) can0 102#011A0147027802FA
(1620515270.080531) can0 102#011E014E02760306
(1620515270.085638) can0 601#2B71600000000000
(1620515270.085771) can0 581#6071600000000000
(1620515270.100889) can0 102#011B0149026A02FA
(1620515270.111021) can0 601#2B71600000000000
(1620515270.111138) can0 581#6071600000000000
(1620515270.122524) can0 102#011E014E02790301
(1620515270.127642) can0 080#00
(1620515270.127779) can0 581#4077600000000000
(1620515270.129138) can0 581#406C600000000000
(1620515270.130511) can0 420#020001
(1620515270.136886) can0 601#2B71600000000000
(1620515270.137007) can0 581#6071600000000000
(1620515270.143384) can0 102#011A0145026D02FF
(1620515270.163533) can0 601#2B71600000000000
(1620515270.163648) can0 581#6071600000000000
(1620515270.165007) can0 102#011F014F028602E1
(1620515270.186403) can0 102#011D014D027802FD
(1620515270.189017) can0 601#2B71600000000000
(1620515270.189152) can0 581#6071600000000000
(1620515270.206775) can0 102#011F0150027C0303
(1620515270.215640) can0 601#2B71600000000000
(1620515270.215763) can0 581#6071600000000000
(1620515270.227167) can0 080#00
(1620515270.228512) can0 102#011A0146027C0303
(1620515270.228632) can0 581#4077600000000000
(1620515270.230012) can0 581#406C600000000000
(1620515270.230134) can0 420#020001
(1620515270.241509) can0 601#2B71600000000000
(1620515270.241640) can0 581#6071600000000000
(1620515270.249261) can0 102#011B0148027C0308
(1620515270.268154) can0 601#2B71600000000000
(1620515270.268268) can0 581#6071600000000000
(1620515270.270881) can0 102#011C0148027D0308
(1620515270.291028) can0 102#011B0148027402FD
(1620515270.293637) can0 601#2B71600000000000
(1620515270.293783) can0 581#6071600000000000
(1620515270.312648) can0 102#011F014F027902FF
(1620515270.320268) can0 601#2B71600000000000
(1620515270.320491) can0 581#6071600000000000
(1620515270.328017) can0 080#00
(1620515270.328147) can0 581#4077600000000000
(1620515270.329510) can0 581#406C600000000000
(1620515270.330892) can0 420#020001
(1620515270.333515) can0 102#01200148027C0302
(1620515270.346142) can0 601#2B71600000000000
(1620515270.346304) can0 581#6071600000000000
(1620515270.355141) can0 102#011D014C02770309
(1620515270.371527) can0 601#2B71600000000000
(1620515270.371640) can0 581#6071600000000000
(1620515270.375515) can0 102#011C014902760309
(1620515270.396891) can0 102#011B0149027802FC
(1620515270.398271) can0 601#2B71600000000000
(1620515270.398402) can0 581#6071600000000000
(1620515270.418525) can0 102#011F0150026A02F6
(1620515270.423635) can0 601#2B71600000000000
(1620515270.425008) can0 581#6071600000000000
(1620515270.427634) can0 080#00
(1620515270.429012) can0 581#4077600000000000
(1620515270.430386) can0 581#406C600000000000
(1620515270.430512) can0 420#020001
(1620515270.439394) can0 102#011F014F028002CE
(1620515270.450789) can0 601#2B71600000000000
(1620515270.451046) can0 581#6071600000000000
(1620515270.459761) can0 102#011C01490277030A
(1620515270.476152) can0 601#2B71600000000000
(1620515270.476277) can0 581#6071600000000000
(1620515270.481390) can0 102#011C0147028002CD
(1620515270.502780) can0 601#2B71600000000000
(1620515270.502891) can0 102#011A014402740303
(1620515270.503015) can0 581#6071600000000000
(1620515270.523159) can0 102#011B0148027102FD
(1620515270.528261) can0 080#00
(1620515270.529638) can0 581#4077600000000000
(1620515270.529757) can0 581#406C600000000000
(1620515270.531132) can0 420#020001
(1620515270.532510) can0 601#2B71600000000000
(1620515270.532634) can0 581#6071600000000000
(1620515270.545265) can0 102#011F014F027002F8
(1620515270.554147) can0 601#2B71600000000000
(1620515270.554270) can0 581#6071600000000000
(1620515270.565649) can0 102#011E014E02760308
(1620515270.580767) can0 601#2B71600000000000
(1620515270.580909) can0 581#6071600000000000
(1620515270.587267) can0 102#011C0149027B0308
(1620515270.606148) can0 601#2B71600000000000
(1620515270.607514) can0 581#6071600000000000
(1620515270.607632) can0 102#011B0145027D030A
(1620515270.629034) can0 080#00
(1620515270.629149) can0 102#011B014A027402FF
(1620515270.629265) can0 581#4077600000000000
(1620515270.630637) can0 581#406C600000000000
(1620515270.632008) can0 420#020001
(1620515270.632142) can0 601#2B71600000000000
(1620515270.633508) can0 581#6071600000000000
(1620515270.649887) can0 102#011F014E028602DE
(1620515270.658772) can0 601#2B71600000000000
(1620515270.658890) can0 581#6071600000000000
(1620515270.671494) can0 102#011C0149028B02DB
(1620515270.685397) can0 601#2B71600000000000
(1620515270.685628) can0 581#6071600000000000
(1620515270.693187) can0 102#011C0149027E0309
(1620515270.710770) can0 601#2B71600000000000
(1620515270.710918) can0 581#6071600000000000
(1620515270.713505) can0 102#011B0148026E0303
(1620515270.728652) can0 080#00
(1620515270.730029) can0 581#4077600000000000
(1620515270.731380) can0 581#406C600000000000
(1620515270.731509) can0 420#020001
(1620515270.735388) can0 102#011B014802750304
(1620515270.736764) can0 601#2B71600000000000
(1620515270.736888) can0 581#6071600000000000
(1620515270.755779) can0 102#011B014602760308
(1620515270.763395) can0 601#2B71600000000000
(1620515270.763514) can0 581#6071600000000000
(1620515270.777400) can0 102#011A0147026902F8
(1620515270.788762) can0 601#2B71600000000000
(1620515270.790135) can0 581#6071600000000000
(1620515270.797770) can0 102#011D014D027402FC
(1620515270.815399) can0 601#2B71600000000000
(1620515270.815548) can0 581#6071600000000000
(1620515270.819389) can0 102#011F014F0277030A
(1620515270.829516) can0 080#00
(1620515270.830889) can0 581#4077600000000000
(1620515270.831013) can0 581#406C600000000000
(1620515270.832385) can0 420#020001
(1620515270.840020) can0 102#011C0148028902D5
(1620515270.841385) can0 601#2B71600000000000
(1620515270.841515) can0 581#6071600000000000
(1620515270.861633) can0 102#011B014702770309
(1620515270.868019) can0 601#2B71600000000000
(1620515270.868155) can0 581#6071600000000000
(1620515270.883276) can0 102#011B014802750304
(1620515270.893390) can0 601#2B71600000000000
(1620515270.893547) can0 581#6071600000000000
(1620515270.903643) can0 102#011C0149027B0304
(1620515270.920028) can0 601#2B71600000000000
(1620515270.920139) can0 581#6071600000000000
(1620515270.925260) can0 102#011A0146027402FE
(1620515270.929136) can0 080#00
(1620515270.930511) can0 581#4077600000000000
(1620515270.931884) can0 581#406C600000000000
(1620515270.932004) can0 420#020001
(1620515270.945898) can0 601#2B71600000000000
(1620515270.946115) can0 581#6071600000000000
(1620515270.946273) can0 102#011E014C026F0302
(1620515270.967649) can0 102#011A014702740300
(1620515270.971514) can0 601#2B71600000000000
(1620515270.971639) can0 581#6071600000000000
(1620515270.988026) can0 102#011A0147028002CD
(1620515270.998139) can0 601#2B71600000000000
(1620515270.998258) can0 581#6071600000000000
(1620515271.009641) can0 102#011B0148027F030C
(1620515271.023526) can0 601#2B71600000000000
(1620515271.023639) can0 581#6071600000000000
(1620515271.030011) can0 080#00
(1620515271.030220) can0 102#011B014802B202E1
(1620515271.031509) can0 581#4077600000000000
(1620515271.031633) can0 581#406C600000000000
(1620515271.033010) can0 420#020001
(1620515271.049398) can0 601#2B71600000000000
(1620515271.050762) can0 581#6071600000000000
(1620515271.052135) can0 102#011C0149027B0301
(1620515271.073524) can0 102#011A01460276030A
(1620515271.076135) can0 601#2B71600000000000
(1620515271.076262) can0 581#6071600000000000
(1620515271.093903) can0 102#011B014802760308
(1620515271.101513) can0 601#2B71600000000000
(1620515271.102883) can0 581#6071600000000000
(1620515271.115517) can0 102#011B014802760302
(1620515271.128152) can0 601#2B71600000000000
(1620515271.128263) can0 581#6071600000000000
(1620515271.129633) can0 080#00
(1620515271.131007) can0 581#4077600000000000
(1620515271.132387) can0 581#406C600000000000
(1620515271.132509) can0 420#020001
(1620515271.136386) can0 102#011B0147027E030B
(1620515271.154022) can0 601#2B71600000000000
(1620515271.154139) can0 581#6071600000000000
(1620515271.158009) can0 102#011A014702770306
(1620515271.178154) can0 102#011B0149027B0308
(1620515271.180758) can0 601#2B71600000000000
(1620515271.180886) can0 581#6071600000000000
(1620515271.199781) can0 102#011C0149027A0302
(1620515271.206137) can0 601#2B71600000000000
(1620515271.206277) can0 581#6071600000000000
(1620515271.221386) can0 102#011B0148027B030C
(1620515271.230272) can0 080#00
(1620515271.231645) can0 581#4077600000000000
(1620515271.231764) can0 581#406C600000000000
(1620515271.233132) can0 420#020001
(1620515271.234514) can0 601#2B71600000000000
(1620515271.234633) can0 581#6071600000000000
(1620515271.242261) can0 102#011B014602770309
(1620515271.258644) can0 601#2B71600000000000
(1620515271.258768) can0 581#6071600000000000
(1620515271.262636) can0 102#011B0148027D030B
(1620515271.284027) can0 102#011B0148027102F6
(1620515271.284254) can0 601#2B71600000000000
(1620515271.284274) can0 581#6071600000000000
(1620515271.305653) can0 102#011E014E028F02E8
(1620515271.310774) can0 601#2B71600000000000
(1620515271.310888) can0 581#6071600000000000
(1620515271.326021) can0 102#011D014B02740308
(1620515271.329889) can0 080#00
(1620515271.331259) can0 581#4077600000000000
(1620515271.332639) can0 581#406C600000000000
(1620515271.334009) can0 420#020001
(1620515271.336636) can0 601#2B71600000000000
(1620515271.336768) can0 581#6071600000000000
(1620515271.348147) can0 102#011B014702740302
(1620515271.363276) can0 601#2B71600000000000
(1620515271.363423) can0 581#6071600000000000
(1620515271.368511) can0 102#011B0147028002CD
(1620515271.388652) can0 601#2B71600000000000
(1620515271.388801) can0 581#6071600000000000
(1620515271.390139) can0 102#011C014902790300
(1620515271.411529) can0 102#011A0146028202D3
(1620515271.415399) can0 601#2B71600000000000
(1620515271.415527) can0 581#6071600000000000
(1620515271.430650) can0 080#00
(1620515271.432013) can0 581#4077600000000000
(1620515271.432138) can0 102#011C0149027102F5
(1620515271.432264) can0 581#406C600000000000
(1620515271.433637) can0 420#020001
(1620515271.441263) can0 601#2B71600000000000
(1620515271.441386) can0 581#6071600000000000
(1620515271.452773) can0 102#011E0151028402D8
(1620515271.466645) can0 601#2B71600000000000
(1620515271.466767) can0 581#6071600000000000
(1620515271.474393) can0 102#011D014B027502FF
(1620515271.493275) can0 601#2B71600000000000
(1620515271.493446) can0 581#6071600000000000
(1620515271.496011) can0 102#011F014F028A02D8
(1620515271.516155) can0 102#011C014802760308
(1620515271.518766) can0 601#2B71600000000000
(1620515271.518890) can0 581#6071600000000000
(1620515271.531525) can0 080#00
(1620515271.531690) can0 581#4077600000000000
(1620515271.533025) can0 581#406C600000000000
(1620515271.534386) can0 420#020001
(1620515271.538266) can0 102#011B014902730301
(1620515271.544646) can0 601#2B71600000000000
(1620515271.546012) can0 581#6071600000000000
(1620515271.558654) can0 102#011B0148027A0300
(1620515271.571272) can0 601#2B71600000000000
(1620515271.571404) can0 581#6071600000000000
(1620515271.580266) can0 102#011A0146027A0301
(1620515271.597903) can0 601#2B71600000000000
(1620515271.598017) can0 581#6071600000000000
(1620515271.600637) can0 102#011A014602760309
(1620515271.622027) can0 102#011B0147028902D1
(1620515271.623386) can0 601#2B71600000000000
(1620515271.623513) can0 581#6071600000000000
(1620515271.631140) can0 080#00
(1620515271.632514) can0 581#4077600000000000
(1620515271.633887) can0 581#406C600000000000
(1620515271.634016) can0 420#020001
(1620515271.642886) can0 102#011B0148027F0304
(1620515271.649276) can0 601#2B71600000000000
(1620515271.649408) can0 581#6071600000000000
(1620515271.664525) can0 102#011B0148027D0309
(1620515271.675895) can0 601#2B71600000000000
(1620515271.676026) can0 581#6071600000000000
(1620515271.686147) can0 102#011C01490277030D
(1620515271.701274) can0 601#2B71600000000000
(1620515271.702635) can0 581#6071600000000000
(1620515271.706513) can0 102#011C014A027902F2
(1620515271.727905) can0 601#2B71600000000000
(1620515271.728068) can0 102#011D014A026402F7
(1620515271.728151) can0 581#6071600000000000
(1620515271.732012) can0 080#00
(1620515271.733384) can0 581#4077600000000000
(1620515271.733524) can0 581#406C600000000000
(1620515271.734889) can0 420#020001
(1620515271.748774) can0 102#011F014F027102FD
(1620515271.753889) can0 601#2B71600000000000
(1620515271.754012) can0 581#6071600000000000
(1620515271.770403) can0 102#01200148027302FC
(1620515271.780525) can0 601#2B71600000000000
(1620515271.780642) can0 581#6071600000000000
(1620515271.792022) can0 102#011F015002750305
(1620515271.805906) can0 601#2B71600000000000
(1620515271.806019) can0 581#6071600000000000
(1620515271.812386) can0 102#011C0149027802FC
(1620515271.832526) can0 080#00
(1620515271.832645) can0 581#4077600000000000
(1620515271.834014) can0 102#0120014802770306
(1620515271.834137) can0 581#406C600000000000
(1620515271.835512) can0 420#020001
(1620515271.835640) can0 601#2B71600000000000
(1620515271.837028) can0 581#6071600000000000
(1620515271.854778) can0 102#011C0149028102D1
(1620515271.858636) can0 601#2B71600000000000
(1620515271.858859) can0 581#6071600000000000
(1620515271.876395) can0 102#011C0148027B0302
(1620515271.884022) can0 601#2B71600000000000
(1620515271.884138) can0 581#6071600000000000
(1620515271.896771) can0 102#011A0146028202D1
(1620515271.910651) can0 601#2B71600000000000
(1620515271.910762) can0 581#6071600000000000
(1620515271.918387) can0 102#011C0149027D0308
(1620515271.932276) can0 080#00
(1620515271.933637) can0 581#4077600000000000
(1620515271.935013) can0 581#406C600000000000
(1620515271.935137) can0 420#020001
(1620515271.936509) can0 601#2B71600000000000
(1620515271.936633) can0 581#6071600000000000
(1620515271.939258) can0 102#011A014702760306
(1620515271.960655) can0 102#011A0146027202FB
(1620515271.962011) can0 601#2B71600000000000
(1620515271.963387) can0 581#6071600000000000
(1620515271.981029) can0 102#011E014E027802FF
(1620515271.988653) can0 601#2B71600000000000
(1620515271.988763) can0 581#6071600000000000
(1620515272.002650) can0 102#012001480277030C
(1620515272.015288) can0 601#2B71600000000000
(1620515272.015390) can0 581#6071600000000000
(1620515272.024271) can0 102#011C0148029002D8
(1620515272.033148) can0 080#00
(1620515272.033266) can0 581#4077600000000000
(1620515272.034635) can0 581#406C600000000000
(1620515272.036009) can0 420#020001
(1620515272.041138) can0 601#2B71600000000000
(1620515272.041258) can0 581#6071600000000000
(1620515272.045150) can0 102#011C014A027202FF
(1620515272.066526) can0 102#0120014802790300
