(1620515259.384794) can0 601#2B71600000000000
(1620515259.384902) can0 581#6071600000000000
(1620515259.393793) can0 102#01280149026E02F4
(1620515259.410172) can0 601#2B71600000000000
(1620515259.410277) can0 581#6071600000000000
(1620515259.414163) can0 102#0129014B026E02F5
(1620515259.435677) can0 102#0128014A026B02ED
(1620515259.435776) can0 601#2B71600000000000
(1620515259.437156) can0 581#6071600000000000
(1620515259.456050) can0 102#0128014B026802E8
(1620515259.462428) can0 601#2B71600000000000
(1620515259.462526) can0 581#6071600000000000
(1620515259.477665) can0 102#0128014A026D02F0
(1620515259.489042) can0 601#2B71600000000000
(1620515259.489151) can0 581#6071600000000000
(1620515259.499308) can0 102#0128014A027302F3
(1620515259.514432) can0 601#2B71600000000000
(1620515259.515790) can0 581#6071600000000000
(1620515259.519718) can0 102#01280149027202F0
(1620515259.541047) can0 601#2B71600000000000
(1620515259.541138) can0 102#01270152027202F0
(1620515259.541311) can0 581#6071600000000000
(1620515259.562793) can0 102#0128014B026C02F0
(1620515259.566652) can0 601#2B71600000000000
(1620515259.566766) can0 581#6071600000000000
(1620515259.583173) can0 102#0128014A027002EB
(1620515259.593280) can0 601#2B71600000000000
(1620515259.593454) can0 581#6071600000000000
(1620515259.604779) can0 102#01280149027102EB
(1620515259.608649) can0 080#00
(1620515259.608766) can0 181#210070FFFFFF0000
(1620515259.610131) can0 281#1920C30FFE570000
(1620515259.610259) can0 381#06006E7DBBFF
(1620515259.610384) can0 481#00000500000000
(1620515259.610505) can0 581#406C600000000000
(1620515259.611894) can0 420#020001
(1620515259.619617) can0 601#2B71600000000000
(1620515259.619655) can0 581#6071600000000000
(1620515259.626041) can0 102#0128014A028002C3
(1620515259.644908) can0 601#2B71600000000000
(1620515259.645059) can0 581#6071600000000000
(1620515259.646388) can0 102#01260150027402F2
(1620515259.667776) can0 102#0128014A027402EB
(1620515259.671642) can0 601#2B71600000000000
(1620515259.671839) can0 581#6071600000000000
(1620515259.689411) can0 102#01270151027902F0
(1620515259.697146) can0 581#6071600000000000
(1620515259.697034) can0 601#2B71600000000000
(1620515259.709772) can0 102#0128014A026E02F5
(1620515259.723676) can0 601#2B71600000000000
(1620515259.726291) can0 581#6071600000000000
(1620515259.731390) can0 102#0129014C027802E8
(1620515259.749031) can0 601#2B71600000000000
(1620515259.750398) can0 581#6071600000000000
(1620515259.751766) can0 102#01270151027102EC
(1620515259.773152) can0 102#0128014A027B02F5
(1620515259.775793) can0 601#2B71600000000000
(1620515259.776004) can0 581#6071600000000000
(1620515259.794785) can0 102#012A014C026802E9
(1620515259.801153) can0 601#2B71600000000000
(1620515259.805011) can0 581#6071600000000000
(1620515259.815172) can0 102#01270152026802E8
(1620515259.827781) can0 601#2B71600000000000
(1620515259.827937) can0 581#6071600000000000
(1620515259.836776) can0 102#01270152026B02EE
(1620515259.854408) can0 601#2B71600000000000
(1620515259.854519) can0 581#6071600000000000
(1620515259.858389) can0 102#0128014A027402F2
(1620515259.859757) can0 080#00
(1620515259.859884) can0 181#21006FFFFFFF0000
(1620515259.860005) can0 281#1920C10FFE570000
(1620515259.860129) can0 381#0600AE7DABFF
(1620515259.860256) can0 481#00000500000000
(1620515259.860381) can0 581#4077600000000000
(1620515259.861762) can0 581#406C600000000000
(1620515259.863132) can0 420#020001
(1620515259.879526) can0 102#0129014B027C02FC
(1620515259.879665) can0 601#2B71600000000000
(1620515259.882261) can0 581#6071600000000000
(1620515259.899897) can0 102#0129014B026F02F0
(1620515259.906262) can0 601#2B71600000000000
(1620515259.906392) can0 581#6071600000000000
(1620515259.921512) can0 102#0128014A02750308
(1620515259.931637) can0 601#2B71600000000000
(1620515259.933007) can0 581#6071600000000000
(1620515259.941890) can0 102#01260152027D02FE
(1620515259.958274) can0 601#2B71600000000000
(1620515259.960883) can0 581#6071600000000000
(1620515259.963508) can0 102#012A014E027202F0
(1620515259.983648) can0 601#2B71600000000000
(1620515259.985010) can0 102#0128014A027602FA
(1620515259.985138) can0 581#6071600000000000
(1620515260.005273) can0 102#0129014C027402F5
(1620515260.010383) can0 601#2B71600000000000
(1620515260.010512) can0 581#6071600000000000
(1620515260.026898) can0 102#012B014E027202ED
(1620515260.037013) can0 601#2B71600000000000
(1620515260.039635) can0 581#6071600000000000
(1620515260.048507) can0 102#0129014B026F02F0
(1620515260.062395) can0 601#2B71600000000000
(1620515260.062541) can0 581#6071600000000000
(1620515260.068996) can0 102#0129014A026F02F9
(1620515260.089019) can0 601#2B71600000000000
(1620515260.089136) can0 581#6071600000000000
(1620515260.090505) can0 102#0128014A027102F0
(1620515260.110651) can0 080#00
(1620515260.110760) can0 181#21006FFFFFFF0000
(1620515260.110881) can0 281#1920C30FFE570000
(1620515260.111006) can0 102#0125014D028C02CD
(1620515260.111128) can0 381#06006E7DBBFF
(1620515260.111257) can0 481#00000500000000
(1620515260.112635) can0 581#406C600000000000
(1620515260.114008) can0 420#020001
(1620515260.114153) can0 601#2B71600000000000
(1620515260.116758) can0 581#6071600000000000
(1620515260.131883) can0 102#0128014A027002ED
(1620515260.140774) can0 601#2B71600000000000
(1620515260.140889) can0 581#6071600000000000
(1620515260.153527) can0 102#01280149027402F2
(1620515260.167357) can0 601#2B71600000000000
(1620515260.167485) can0 581#6071600000000000
(1620515260.175109) can0 102#0128014A027D02FC
(1620515260.192775) can0 601#2B71600000000000
(1620515260.195384) can0 581#6071600000000000
(1620515260.195530) can0 102#012A014D027202F1
(1620515260.216907) can0 102#0129014B027302F3
(1620515260.219594) can0 601#2B71600000000000
(1620515260.219633) can0 581#6071600000000000
(1620515260.238526) can0 102#0128014A027102EB
(1620515260.244902) can0 601#2B71600000000000
(1620515260.245017) can0 581#6071600000000000
(1620515260.258890) can0 102#0128014A027002EB
(1620515260.271521) can0 601#2B71600000000000
(1620515260.272884) can0 581#6071600000000000
(1620515260.280516) can0 102#0128014A028C02D0
(1620515260.296901) can0 601#2B71600000000000
(1620515260.297017) can0 581#6071600000000000
(1620515260.300880) can0 102#01260150026F02F0
(1620515260.322270) can0 102#01280149027102F4
(1620515260.323633) can0 601#2B71600000000000
(1620515260.323767) can0 581#6071600000000000
(1620515260.343900) can0 102#0128014A027102EC
(1620515260.349011) can0 601#2B71600000000000
(1620515260.351633) can0 581#6071600000000000
(1620515260.361774) can0 080#00
(1620515260.361890) can0 181#21006FFFFFFF0000
(1620515260.362014) can0 281#1920C30F06580000
(1620515260.362128) can0 381#0600AE7D8BFF
(1620515260.362258) can0 481#00000500000000
(1620515260.363637) can0 581#406C600000000000
(1620515260.363764) can0 420#020001
(1620515260.365132) can0 102#0129014B026E02EB
(1620515260.375259) can0 601#2B71600000000000
(1620515260.375418) can0 581#6071600000000000
(1620515260.385524) can0 102#0128014A027102EC
(1620515260.401903) can0 601#2B71600000000000
(1620515260.402018) can0 581#6071600000000000
(1620515260.407141) can0 102#0129014C028102C4
(1620515260.427285) can0 601#2B71600000000000
(1620515260.428636) can0 102#01260150027002D8
(1620515260.430011) can0 581#6071600000000000
(1620515260.448899) can0 102#01260150027202EA
(1620515260.454019) can0 601#2B71600000000000
(1620515260.454242) can0 581#6071600000000000
(1620515260.470526) can0 102#01270151026902E3
(1620515260.479394) can0 601#2B71600000000000
(1620515260.480775) can0 581#6071600000000000
(1620515260.490893) can0 102#0128014A027302F2
(1620515260.506027) can0 601#2B71600000000000
(1620515260.507384) can0 581#6071600000000000
(1620515260.512519) can0 102#01280149026F02F5
(1620515260.531391) can0 601#2B71600000000000
(1620515260.532758) can0 581#6071600000000000
(1620515260.534134) can0 102#0129014B028002BB
(1620515260.554283) can0 102#0124014B026A02E8
(1620515260.558132) can0 601#2B71600000000000
(1620515260.558267) can0 581#6071600000000000
(1620515260.575888) can0 102#01270151026F02F5
(1620515260.584760) can0 601#2B71600000000000
(1620515260.586138) can0 581#6071600000000000
(1620515260.597533) can0 102#0129014C026F02FE
(1620515260.610140) can0 601#2B71600000000000
(1620515260.610278) can0 581#6071600000000000
(1620515260.611632) can0 080#00
(1620515260.613007) can0 181#21006FFFFFFF0000
(1620515260.613132) can0 281#1920C30FFE570000
(1620515260.613262) can0 381#06006E7DBBFF
(1620515260.613377) can0 481#00000500000000
(1620515260.614755) can0 581#406C600000000000
(1620515260.614888) can0 420#020001
(1620515260.618757) can0 102#012A014D026C02EA
(1620515260.636397) can0 601#2B71600000000000
(1620515260.636548) can0 581#6071600000000000
(1620515260.639140) can0 102#0128014A026F02F8
(1620515260.660516) can0 102#0129014A027302F1
(1620515260.661884) can0 601#2B71600000000000
(1620515260.664510) can0 581#6071600000000000
(1620515260.680899) can0 102#01270154026F02F5
(1620515260.688507) can0 601#2B71600000000000
(1620515260.688634) can0 581#6071600000000000
(1620515260.702515) can0 102#0128014A027002E2
(1620515260.715148) can0 601#2B71600000000000
(1620515260.715264) can0 581#6071600000000000
(1620515260.724151) can0 102#0128014A027902F3
(1620515260.740512) can0 601#2B71600000000000
(1620515260.741884) can0 581#6071600000000000
(1620515260.744506) can0 102#0129014B027D02F3
(1620515260.765898) can0 102#0129014A026E02F5
(1620515260.767260) can0 601#2B71600000000000
(1620515260.767385) can0 581#6071600000000000
(1620515260.787514) can0 102#012A014B026802E5
(1620515260.792632) can0 601#2B71600000000000
(1620515260.792761) can0 581#6071600000000000
(1620515260.807902) can0 102#01280149027702FD
(1620515260.819261) can0 601#2B71600000000000
(1620515260.820632) can0 581#6071600000000000
(1620515260.829522) can0 102#012A014C027102EC
(1620515260.844645) can0 601#2B71600000000000
(1620515260.846009) can0 581#6071600000000000
(1620515260.849888) can0 102#0128014A026802F5
(1620515260.862481) can0 080#00
(1620515260.863851) can0 181#21006FFFFFFF0000
(1620515260.864007) can0 281#1920C30F06580000
(1620515260.864134) can0 381#06006E7DABFF
(1620515260.864255) can0 481#00000500000000
(1620515260.865635) can0 581#406C600000000000
(1620515260.865761) can0 420#020001
(1620515260.870882) can0 601#2B71600000000000
(1620515260.871011) can0 581#6071600000000000
(1620515260.872381) can0 102#012A014C027002F0
(1620515260.892525) can0 102#0128014A026F02FB
(1620515260.897634) can0 601#2B71600000000000
(1620515260.897764) can0 581#6071600000000000
(1620515260.914138) can0 102#0129014B026B02EC
(1620515260.923015) can0 601#2B71600000000000
(1620515260.923152) can0 581#6071600000000000
(1620515260.934522) can0 102#01280149027802F5
(1620515260.949635) can0 601#2B71600000000000
(1620515260.949763) can0 581#6071600000000000
(1620515260.956132) can0 102#0128014A026C02EE
(1620515260.975027) can0 601#2B71600000000000
(1620515260.976382) can0 581#6071600000000000
(1620515260.976506) can0 102#012A014D026C02EC
(1620515260.997886) can0 102#0129014A027202EA
(1620515261.001757) can0 601#2B71600000000000
(1620515261.001921) can0 581#6071600000000000
(1620515261.019547) can0 102#01280149026B02F0
(1620515261.027134) can0 601#2B71600000000000
(1620515261.028508) can0 581#6071600000000000
(1620515261.039883) can0 102#01270152027902EE
(1620515261.053795) can0 601#2B71600000000000
(1620515261.053893) can0 581#6071600000000000
(1620515261.061507) can0 102#0128014A026D02F4
(1620515261.079133) can0 601#2B71600000000000
(1620515261.080507) can0 581#6071600000000000
(1620515261.083133) can0 102#0129014A027A02F4
(1620515261.103275) can0 102#0129014B025902DF
(1620515261.105883) can0 601#2B71600000000000
(1620515261.106048) can0 581#6071600000000000
(1620515261.113634) can0 080#00
(1620515261.113756) can0 181#210070FFFFFF0000
(1620515261.115132) can0 581#4077600000000000
(1620515261.115257) can0 581#406C600000000000
(1620515261.116630) can0 420#020001
(1620515261.116759) can0 281#1920C30F06580000
(1620515261.116888) can0 381#06006E7ECBFF
(1620515261.117014) can0 481#00000500000000
(1620515261.124632) can0 102#0128014A027102EC
(1620515261.132264) can0 601#2B71600000000000
(1620515261.132398) can0 581#6071600000000000
(1620515261.146272) can0 102#01280149027002EA
(1620515261.157633) can0 601#2B71600000000000
(1620515261.157756) can0 581#6071600000000000
(1620515261.166634) can0 102#0128014A027402F4
(1620515261.184270) can0 601#2B71600000000000
(1620515261.186886) can0 581#6071600000000000
(1620515261.188262) can0 102#0128014A026702F3
(1620515261.209634) can0 102#0129014A027402FB
(1620515261.209867) can0 601#2B71600000000000
(1620515261.211133) can0 581#6071600000000000
(1620515261.230024) can0 102#0129014C027002ED
(1620515261.236388) can0 601#2B71600000000000
(1620515261.236516) can0 581#6071600000000000
(1620515261.251634) can0 102#0129014B027802F5
(1620515261.261772) can0 601#2B71600000000000
(1620515261.265639) can0 581#6071600000000000
(1620515261.273259) can0 102#0128014A027902F1
(1620515261.288381) can0 601#2B71600000000000
(1620515261.288510) can0 581#6071600000000000
(1620515261.293628) can0 102#0128014B027002EA
(1620515261.315027) can0 601#2B71600000000000
(1620515261.315136) can0 581#6071600000000000
(1620515261.315288) can0 102#01270150026F02F1
(1620515261.336648) can0 102#0128014A027102EE
(1620515261.340516) can0 601#2B71600000000000
(1620515261.343135) can0 581#6071600000000000
(1620515261.357028) can0 102#0128014A025D02EA
(1620515261.364635) can0 080#00
(1620515261.366008) can0 581#4077600000000000
(1620515261.366134) can0 581#406C600000000000
(1620515261.367524) can0 181#21006FFFFFFF0000
(1620515261.367668) can0 281#1920C30F06580000
(1620515261.367753) can0 381#06006E7EABFF
(1620515261.367880) can0 420#020001
(1620515261.368005) can0 481#00000500000000
(1620515261.368128) can0 601#2B71600000000000
(1620515261.369508) can0 581#6071600000000000
(1620515261.378380) can0 102#0129014B026F02F8
(1620515261.392277) can0 601#2B71600000000000
(1620515261.393632) can0 581#6071600000000000
(1620515261.400008) can0 102#0129014B026902E8
(1620515261.418885) can0 601#2B71600000000000
(1620515261.420257) can0 102#01270152027002E2
(1620515261.421638) can0 581#6071600000000000
(1620515261.441776) can0 102#01270151027202F0
(1620515261.444384) can0 601#2B71600000000000
(1620515261.445756) can0 581#6071600000000000
(1620515261.463389) can0 102#01260150027802F1
(1620515261.471012) can0 601#2B71600000000000
(1620515261.471247) can0 581#6071600000000000
(1620515261.483768) can0 102#0129014B027A02F4
(1620515261.497616) can0 601#2B71600000000000
(1620515261.500237) can0 581#6071600000000000
(1620515261.505352) can0 102#0128014A026D02F0
(1620515261.523016) can0 601#2B71600000000000
(1620515261.523133) can0 581#6071600000000000
(1620515261.525761) can0 102#0129014B027102EE
(1620515261.547152) can0 102#0129014B026002E4
(1620515261.549759) can0 601#2B71600000000000
(1620515261.549992) can0 581#6071600000000000
(1620515261.568772) can0 102#0128014A027702FD
(1620515261.575174) can0 601#2B71600000000000
(1620515261.577761) can0 581#6071600000000000
(1620515261.589135) can0 102#0129014A027002EC
(1620515261.601761) can0 601#2B71600000000000
(1620515261.601885) can0 581#6071600000000000
(1620515261.610768) can0 102#012C014F026C02EE
(1620515261.615887) can0 080#00
(1620515261.616014) can0 581#4077600000000000
(1620515261.617384) can0 181#21006FFFFFFF0000
(1620515261.617509) can0 281#1920C30F06580000
(1620515261.617629) can0 381#06006E7DABFF
(1620515261.617756) can0 481#00000500000000
(1620515261.617878) can0 420#020001
(1620515261.628008) can0 601#2B71600000000000
(1620515261.628136) can0 581#6071600000000000
(1620515261.632008) can0 102#012A014C027702FB
(1620515261.653418) can0 102#0129014B027202F2
(1620515261.653515) can0 601#2B71600000000000
(1620515261.656133) can0 581#6071600000000000
(1620515261.673779) can0 102#0129014C027102F8
(1620515261.680137) can0 601#2B71600000000000
(1620515261.680258) can0 581#6071600000000000
(1620515261.695395) can0 102#0129014B027602FC
(1620515261.705522) can0 601#2B71600000000000
(1620515261.705743) can0 581#6071600000000000
(1620515261.717009) can0 102#012A014C026D02F0
(1620515261.732136) can0 601#2B71600000000000
(1620515261.734760) can0 581#6071600000000000
(1620515261.737385) can0 102#0128014A027602F9
(1620515261.757518) can0 601#2B71600000000000
(1620515261.758880) can0 581#6071600000000000
(1620515261.759006) can0 102#0128014A027402F4
(1620515261.780400) can0 102#0129014C027502F8
(1620515261.784294) can0 601#2B71600000000000
(1620515261.784516) can0 581#6071600000000000
(1620515261.800889) can0 102#0129014B026B02ED
(1620515261.809759) can0 601#2B71600000000000
(1620515261.812384) can0 581#6071600000000000
(1620515261.822529) can0 102#0129014B026A02E8
(1620515261.836404) can0 601#2B71600000000000
(1620515261.836515) can0 581#6071600000000000
(1620515261.842888) can0 102#01270152026102E5
(1620515261.861778) can0 601#2B71600000000000
(1620515261.863132) can0 581#6071600000000000
(1620515261.864512) can0 102#0128014A027A02F1
(1620515261.865885) can0 080#00
(1620515261.867256) can0 181#210070FFFFFF0000
(1620515261.867387) can0 281#1920C30FFE570000
(1620515261.867511) can0 381#06006E7ECBFF
(1620515261.867635) can0 481#00000500000000
(1620515261.867757) can0 581#406C600000000000
(1620515261.869131) can0 420#020001
(1620515261.885524) can0 102#01280148027102F0
(1620515261.888155) can0 601#2B71600000000000
(1620515261.890761) can0 581#6071600000000000
(1620515261.907151) can0 102#0129014B027102E9
(1620515261.914773) can0 601#2B71600000000000
(1620515261.914980) can0 581#6071600000000000
(1620515261.927524) can0 102#0128014A027A02F3
(1620515261.940155) can0 601#2B71600000000000
(1620515261.940264) can0 581#6071600000000000
(1620515261.949144) can0 102#0129014B027102F0
(1620515261.966778) can0 601#2B71600000000000
(1620515261.968151) can0 581#6071600000000000
(1620515261.969517) can0 102#0128014A027B02F1
(1620515261.990936) can0 102#01260151026C02ED
(1620515261.992303) can0 601#2B71600000000000
(1620515261.992525) can0 581#6071600000000000
(1620515262.012671) can0 102#0129014C027402F3
(1620515262.019029) can0 601#2B71600000000000
(1620515262.019192) can0 581#6071600000000000
(1620515262.033035) can0 102#0129014C025202E4
(1620515262.044409) can0 601#2B71600000000000
(1620515262.047030) can0 581#6071600000000000
(1620515262.054658) can0 102#01270152026002DF
(1620515262.071036) can0 601#2B71600000000000
(1620515262.071253) can0 581#6071600000000000
(1620515262.075033) can0 102#0128014A027202F0
(1620515262.096413) can0 102#01280149026A02E8
(1620515262.096619) can0 601#2B71600000000000
(1620515262.097905) can0 581#6071600000000000
(1620515262.116786) can0 080#00
(1620515262.117012) can0 181#21006FFFFFFF0000
(1620515262.117033) can0 281#1920C30F06580000
(1620515262.117135) can0 381#0600AE7DBBFF
(1620515262.117255) can0 102#01260150027E0302
(1620515262.118646) can0 481#00000500000000
(1620515262.118772) can0 581#406C600000000000
(1620515262.120142) can0 420#020001
(1620515262.122805) can0 601#2B71600000000000
(1620515262.124146) can0 581#6071600000000000
(1620515262.139281) can0 102#0125014E026B02E3
(1620515262.149405) can0 601#2B71600000000000
(1620515262.149732) can0 581#6071600000000000
(1620515262.159665) can0 102#0128014B026A02EA
(1620515262.174786) can0 601#2B71600000000000
(1620515262.174898) can0 581#6071600000000000
(1620515262.181277) can0 102#0128014A026B02E8
(1620515262.201412) can0 601#2B71600000000000
(1620515262.201516) can0 102#01270152026B02EB
(1620515262.202896) can0 581#6071600000000000
(1620515262.223032) can0 102#0128014A026602F1
(1620515262.226916) can0 601#2B71600000000000
(1620515262.228304) can0 581#6071600000000000
(1620515262.244799) can0 102#0129014B027002EC
(1620515262.253678) can0 601#2B71600000000000
(1620515262.253784) can0 581#6071600000000000
(1620515262.265188) can0 102#0128014A027002EC
(1620515262.279024) can0 601#2B71600000000000
(1620515262.280387) can0 581#6071600000000000
(1620515262.286777) can0 102#0129014B026C02ED
(1620515262.305669) can0 601#2B71600000000000
(1620515262.305765) can0 581#6071600000000000
(1620515262.307137) can0 102#0129014B026B02F0
(1620515262.328535) can0 102#0129014C026802EE
(1620515262.331151) can0 601#2B71600000000000
(1620515262.332513) can0 581#6071600000000000
(1620515262.350155) can0 102#0128014A027802F2
(1620515262.357781) can0 601#2B71600000000000
(1620515262.359139) can0 581#6071600000000000
(1620515262.368027) can0 080#00
(1620515262.368146) can0 181#21006FFFFFFF0000
(1620515262.368274) can0 281#1920C30F06580000
(1620515262.368384) can0 381#06006E7DBBFF
(1620515262.368511) can0 481#00000500000000
(1620515262.369888) can0 581#406C600000000000
(1620515262.370017) can0 420#020001
(1620515262.371383) can0 102#0128014A027302F1
(1620515262.384029) can0 601#2B71600000000000
(1620515262.384143) can0 581#6071600000000000
(1620515262.391800) can0 102#01270152026C02EE
(1620515262.409420) can0 601#2B71600000000000
(1620515262.410759) can0 581#6071600000000000
(1620515262.413389) can0 102#012A014C026C02ED
(1620515262.434778) can0 102#0129014B027202F0
(1620515262.436145) can0 601#2B71600000000000
(1620515262.437515) can0 581#6071600000000000
(1620515262.455159) can0 102#0128014A027302F0
(1620515262.461528) can0 601#2B71600000000000
(1620515262.461642) can0 581#6071600000000000
(1620515262.476780) can0 102#01280149026802E8
(1620515262.488148) can0 601#2B71600000000000
(1620515262.488265) can0 581#6071600000000000
(1620515262.498401) can0 102#01280149027102EC
(1620515262.513528) can0 601#2B71600000000000
(1620515262.514885) can0 581#6071600000000000
(1620515262.518772) can0 102#01280149026E02F3
(1620515262.540157) can0 102#0129014B026E02F8
(1620515262.540266) can0 601#2B71600000000000
(1620515262.540389) can0 581#6071600000000000
(1620515262.560528) can0 102#012A014C026D02F4
(1620515262.565649) can0 601#2B71600000000000
(1620515262.567008) can0 581#6071600000000000
(1620515262.582151) can0 102#0129014A026C02F0
(1620515262.592281) can0 601#2B71600000000000
(1620515262.593638) can0 581#6071600000000000
(1620515262.603773) can0 102#0128014A028102C0
(1620515262.617655) can0 080#00
(1620515262.619018) can0 181#210070FFFFFF0000
(1620515262.619142) can0 281#1920C30FFE570000
(1620515262.619268) can0 381#0600AE7DCBFF
(1620515262.619385) can0 481#00000500000000
(1620515262.620762) can0 581#406C600000000000
(1620515262.620917) can0 420#020001
(1620515262.622257) can0 601#2B71600000000000
(1620515262.624893) can0 102#0124014C026E02F5
(1620515262.625121) can0 581#6071600000000000
(1620515262.643909) can0 601#2B71600000000000
(1620515262.645259) can0 581#6071600000000000
(1620515262.645389) can0 102#012A014D027002EB
(1620515262.666779) can0 102#0128014A027802F0
(1620515262.670646) can0 601#2B71600000000000
(1620515262.672020) can0 581#6071600000000000
(1620515262.688398) can0 102#0128014A026A02E4
(1620515262.696025) can0 601#2B71600000000000
(1620515262.697394) can0 581#6071600000000000
(1620515262.708789) can0 102#01270152026E02F5
(1620515262.722650) can0 601#2B71600000000000
(1620515262.722766) can0 581#6071600000000000
(1620515262.730398) can0 102#012A014B027302F2
(1620515262.749281) can0 601#2B71600000000000
(1620515262.749396) can0 581#6071600000000000
(1620515262.750757) can0 102#0129014B027202F1
(1620515262.772153) can0 102#0129014B027002EC
(1620515262.774762) can0 601#2B71600000000000
(1620515262.774887) can0 581#6071600000000000
(1620515262.793778) can0 102#01290148027902F0
(1620515262.801398) can0 601#2B71600000000000
(1620515262.801516) can0 581#6071600000000000
(1620515262.814156) can0 102#0128014C026C02EC
(1620515262.826779) can0 601#2B71600000000000
(1620515262.828135) can0 581#6071600000000000
(1620515262.835775) can0 102#0128014A027402F3
(1620515262.853403) can0 601#2B71600000000000
(1620515262.853560) can0 581#6071600000000000
(1620515262.856138) can0 102#0129014B026F02F8
(1620515262.868785) can0 080#00
(1620515262.868895) can0 181#210070FFFFFF0000
(1620515262.869044) can0 281#1920C30FFE570000
(1620515262.869152) can0 381#06002E7ECBFF
(1620515262.869261) can0 481#00000500000000
(1620515262.870634) can0 581#406C600000000000
(1620515262.872012) can0 420#020001
(1620515262.878398) can0 102#0129014B026802E8
(1620515262.878519) can0 601#2B71600000000000
(1620515262.879886) can0 581#6071600000000000
(1620515262.898776) can0 102#0128014A026C02EB
(1620515262.905154) can0 601#2B71600000000000
(1620515262.905278) can0 581#6071600000000000
(1620515262.920397) can0 102#01280149026602F0
(1620515262.930550) can0 601#2B71600000000000
(1620515262.931895) can0 581#6071600000000000
(1620515262.940766) can0 102#0128014A026F02F8
(1620515262.957157) can0 601#2B71600000000000
(1620515262.959772) can0 581#6071600000000000
(1620515262.962390) can0 102#0129014B026F02F8
(1620515262.983781) can0 601#2B71600000000000
(1620515262.983972) can0 102#01270151026E02F5
(1620515262.984011) can0 581#6071600000000000
(1620515263.004150) can0 102#0129014A026E02F4
(1620515263.009279) can0 601#2B71600000000000
(1620515263.009396) can0 581#6071600000000000
(1620515263.025776) can0 102#0129014B027102EB
(1620515263.035909) can0 601#2B71600000000000
(1620515263.038551) can0 581#6071600000000000
(1620515263.046368) can0 102#01280149026902EE
(1620515263.061428) can0 601#2B71600000000000
(1620515263.061529) can0 581#6071600000000000
(1620515263.067908) can0 102#0129014B027802F0
(1620515263.088026) can0 601#2B71600000000000
(1620515263.088243) can0 581#6071600000000000
(1620515263.089522) can0 102#0128014B025302E3
(1620515263.109657) can0 102#0128014A027502F5
(1620515263.113518) can0 601#2B71600000000000
(1620515263.117389) can0 581#6071600000000000
(1620515263.120008) can0 080#00
(1620515263.120135) can0 181#21006FFFFFFF0000
(1620515263.120254) can0 281#1920C30FFE570000
(1620515263.120379) can0 381#06006E7E8BFF
(1620515263.120504) can0 481#00000500000000
(1620515263.121885) can0 581#406C600000000000
(1620515263.122010) can0 420#020001
(1620515263.130901) can0 102#012A014C026802DF
(1620515263.139772) can0 601#2B71600000000000
(1620515263.139888) can0 581#6071600000000000
(1620515263.152529) can0 102#0128014B026C02F0
(1620515263.166400) can0 601#2B71600000000000
(1620515263.166592) can0 581#6071600000000000
(1620515263.172901) can0 102#0129014B026902E5
(1620515263.191781) can0 601#2B71600000000000
(1620515263.194385) can0 102#0128014A026F02F6
(1620515263.194508) can0 581#6071600000000000
(1620515263.215899) can0 102#012A014D026202E8
(1620515263.218517) can0 601#2B71600000000000
(1620515263.218637) can0 581#6071600000000000
(1620515263.236278) can0 102#01270151026C02EC
(1620515263.243897) can0 601#2B71600000000000
(1620515263.244017) can0 581#6071600000000000
(1620515263.257906) can0 102#0129014C026F02F6
(1620515263.270526) can0 601#2B71600000000000
(1620515263.273152) can0 581#6071600000000000
(1620515263.279536) can0 102#012D0151026802E4
(1620515263.295902) can0 601#2B71600000000000
(1620515263.296020) can0 581#6071600000000000
(1620515263.299892) can0 102#0128014A026D02F1
(1620515263.321279) can0 102#0128014A027202F2
(1620515263.322637) can0 601#2B71600000000000
(1620515263.322765) can0 581#6071600000000000
(1620515263.342902) can0 102#0128014A027C02F5
(1620515263.348030) can0 601#2B71600000000000
(1620515263.350633) can0 581#6071600000000000
(1620515263.363272) can0 102#012A014C027502F8
(1620515263.370895) can0 080#00
(1620515263.371069) can0 181#21006FFFFFFF0000
(1620515263.371133) can0 281#1920C30F06580000
(1620515263.371260) can0 381#0600AE7DABFF
(1620515263.371379) can0 481#00000500000000
(1620515263.372770) can0 581#406C600000000000
(1620515263.372902) can0 420#020001
(1620515263.374262) can0 601#2B71600000000000
(1620515263.374394) can0 581#6071600000000000
(1620515263.384513) can0 102#0129014B026A02EB
(1620515263.400901) can0 601#2B71600000000000
(1620515263.401108) can0 581#6071600000000000
(1620515263.406135) can0 102#0128014A025302DB
(1620515263.426282) can0 601#2B71600000000000
(1620515263.426469) can0 102#0125014D026B02ED
(1620515263.429010) can0 581#6071600000000000
(1620515263.447911) can0 102#0129014C027102F0
(1620515263.453016) can0 601#2B71600000000000
(1620515263.453146) can0 581#6071600000000000
(1620515263.469520) can0 102#0128014A026B02EE
(1620515263.478399) can0 601#2B71600000000000
(1620515263.478516) can0 581#6071600000000000
(1620515263.489895) can0 102#0128014A026602F1
(1620515263.505025) can0 601#2B71600000000000
(1620515263.507643) can0 581#6071600000000000
(1620515263.511532) can0 102#0129014B027202EE
(1620515263.530400) can0 601#2B71600000000000
(1620515263.531767) can0 581#6071600000000000
(1620515263.531900) can0 102#012A014C026D02F0
(1620515263.553283) can0 102#0128014A026902E8
(1620515263.557150) can0 601#2B71600000000000
(1620515263.557272) can0 581#6071600000000000
(1620515263.574902) can0 102#0128014A026602ED
(1620515263.582535) can0 601#2B71600000000000
(1620515263.585136) can0 581#6071600000000000
(1620515263.595273) can0 102#0129014B026902E4
(1620515263.609154) can0 601#2B71600000000000
(1620515263.609310) can0 581#6071600000000000
(1620515263.616895) can0 102#0129014C027202F0
(1620515263.620766) can0 080#00
(1620515263.620898) can0 181#21006FFFFFFF0000
(1620515263.621016) can0 281#1920C30F06580000
(1620515263.622388) can0 381#06006E7DCBFF
(1620515263.622510) can0 481#00000500000000
(1620515263.622633) can0 581#406C600000000000
(1620515263.624016) can0 420#020001
(1620515263.635396) can0 601#2B71600000000000
(1620515263.635537) can0 581#6071600000000000
(1620515263.638135) can0 102#0128014A026802EA
(1620515263.659624) can0 102#0128014A027002ED
(1620515263.660893) can0 601#2B71600000000000
(1620515263.663539) can0 581#6071600000000000
(1620515263.679898) can0 102#0129014B027402F8
(1620515263.687550) can0 601#2B71600000000000
(1620515263.687650) can0 581#6071600000000000
(1620515263.701523) can0 102#0129014B027302F0
(1620515263.712905) can0 601#2B71600000000000
(1620515263.714260) can0 581#6071600000000000
(1620515263.721895) can0 102#01270152026702F0
(1620515263.739612) can0 601#2B71600000000000
(1620515263.742136) can0 581#6071600000000000
(1620515263.743530) can0 102#0129014B026B02EB
(1620515263.764929) can0 102#0129014B027402F2
(1620515263.765008) can0 601#2B71600000000000
(1620515263.766392) can0 581#6071600000000000
(1620515263.785275) can0 102#01280148026D02F0
(1620515263.791654) can0 601#2B71600000000000
(1620515263.791765) can0 581#6071600000000000
(1620515263.806911) can0 102#0129014C026402E9
(1620515263.818286) can0 601#2B71600000000000
(1620515263.819641) can0 581#6071600000000000
(1620515263.828516) can0 102#0129014B027102EE
(1620515263.843649) can0 601#2B71600000000000
(1620515263.843863) can0 581#6071600000000000
(1620515263.848900) can0 102#0129014B026F02F8
(1620515263.870274) can0 601#2B71600000000000
(1620515263.870391) can0 102#01270152026402E8
(1620515263.870508) can0 581#6071600000000000
(1620515263.871902) can0 080#00
(1620515263.873258) can0 581#4077600000000000
(1620515263.873381) can0 581#406C600000000000
(1620515263.874764) can0 181#21006FFFFFFF0000
(1620515263.874888) can0 281#1920C30FFE570000
(1620515263.875008) can0 381#06006E7E9BFF
(1620515263.875136) can0 481#00000500000000
(1620515263.891555) can0 102#0128014A027102F2
(1620515263.895391) can0 601#2B71600000000000
(1620515263.898018) can0 581#6071600000000000
(1620515263.911900) can0 102#0129014B023002D0
(1620515263.922025) can0 601#2B71600000000000
(1620515263.922140) can0 581#6071600000000000
(1620515263.933533) can0 102#01270152026A02E8
(1620515263.948657) can0 601#2B71600000000000
(1620515263.948770) can0 581#6071600000000000
(1620515263.955146) can0 102#01280149027002E8
(1620515263.974034) can0 601#2B71600000000000
(1620515263.975401) can0 102#0128014A027F02FF
(1620515263.975648) can0 581#6071600000000000
(1620515263.996908) can0 102#012B014E027302ED
(1620515264.000785) can0 601#2B71600000000000
(1620515264.000992) can0 581#6071600000000000
(1620515264.018545) can0 102#0128014A027202F2
(1620515264.026150) can0 601#2B71600000000000
(1620515264.026267) can0 581#6071600000000000
(1620515264.038892) can0 102#0128014A027302F3
(1620515264.052774) can0 601#2B71600000000000
(1620515264.054134) can0 581#6071600000000000
(1620515264.060521) can0 102#0129014C027102EE
(1620515264.078145) can0 601#2B71600000000000
(1620515264.079543) can0 581#6071600000000000
(1620515264.080881) can0 102#012A014C027302EA
(1620515264.102276) can0 102#0129014B027D02FA
(1620515264.104884) can0 601#2B71600000000000
(1620515264.105013) can0 581#6071600000000000
(1620515264.122643) can0 080#00
(1620515264.124011) can0 102#012A014C027502F8
(1620515264.124140) can0 581#4077600000000000
(1620515264.124261) can0 181#21006FFFFFFF0000
(1620515264.124382) can0 281#1920C30FFE570000
(1620515264.124508) can0 381#0600AE7DCBFF
(1620515264.124634) can0 481#00000500000000
(1620515264.126007) can0 420#020001
(1620515264.131136) can0 601#2B71600000000000
(1620515264.132509) can0 581#6071600000000000
(1620515264.145147) can0 102#0129014B028C02D0
(1620515264.156511) can0 601#2B71600000000000
(1620515264.156634) can0 581#6071600000000000
(1620515264.165507) can0 102#0125014E027902F5
(1620515264.183159) can0 601#2B71600000000000
(1620515264.183269) can0 581#6071600000000000
(1620515264.187133) can0 102#01280149027202F0
(1620515264.208527) can0 102#0128014A027102EB
(1620515264.208633) can0 601#2B71600000000000
(1620515264.210009) can0 581#6071600000000000
(1620515264.228903) can0 102#0128014A026D02EE
(1620515264.235259) can0 601#2B71600000000000
(1620515264.235430) can0 581#6071600000000000
(1620515264.250524) can0 102#0129014A027302F0
(1620515264.260639) can0 601#2B71600000000000
(1620515264.262011) can0 581#6071600000000000
(1620515264.270953) can0 102#0129014B026D02F2
(1620515264.287275) can0 601#2B71600000000000
(1620515264.288653) can0 581#6071600000000000
(1620515264.292511) can0 102#0129014C026F02F8
(1620515264.312654) can0 601#2B71600000000000
(1620515264.314009) can0 102#012B014F028102C5
(1620515264.314248) can0 581#6071600000000000
(1620515264.334276) can0 102#0125014E026F02F9
(1620515264.339387) can0 601#2B71600000000000
(1620515264.339620) can0 581#6071600000000000
(1620515264.355899) can0 102#01290145026502EE
(1620515264.364786) can0 601#2B71600000000000
(1620515264.366134) can0 581#6071600000000000
(1620515264.373756) can0 080#00
(1620515264.373967) can0 181#210070FFFFFF0000
(1620515264.374007) can0 281#1920C30F06580000
(1620515264.374142) can0 381#06006E7DCBFF
(1620515264.375511) can0 481#00000500000000
(1620515264.375635) can0 581#406C600000000000
(1620515264.375759) can0 420#020001
(1620515264.377130) can0 102#0129014B027802F1
(1620515264.391034) can0 601#2B71600000000000
(1620515264.392383) can0 581#6071600000000000
(1620515264.397510) can0 102#0129014B027702F1
(1620515264.417652) can0 601#2B71600000000000
(1620515264.417765) can0 581#6071600000000000
(1620515264.419130) can0 102#0128014A026F0308
(1620515264.440527) can0 102#01260150027402EC
(1620515264.443133) can0 601#2B71600000000000
(1620515264.444507) can0 581#6071600000000000
(1620515264.460901) can0 102#0129014B027302EE
(1620515264.469757) can0 601#2B71600000000000
(1620515264.469988) can0 581#6071600000000000
(1620515264.482540) can0 102#0129014B026002F0
(1620515264.496390) can0 601#2B71600000000000
(1620515264.496527) can0 581#6071600000000000
(1620515264.502913) can0 102#01280149027302F3
(1620515264.521765) can0 601#2B71600000000000
(1620515264.523135) can0 581#6071600000000000
(1620515264.524513) can0 102#0129014B027C02F9
(1620515264.545901) can0 102#012C014F027B02F8
(1620515264.548512) can0 601#2B71600000000000
(1620515264.548635) can0 581#6071600000000000
(1620515264.566276) can0 102#012A014C027502F8
(1620515264.573887) can0 601#2B71600000000000
(1620515264.574012) can0 581#6071600000000000
(1620515264.587899) can0 102#0129014B026202E9
(1620515264.600523) can0 601#2B71600000000000
(1620515264.600699) can0 581#6071600000000000
(1620515264.609511) can0 102#0129014B027102EC
(1620515264.624650) can0 080#00
(1620515264.624766) can0 181#21006FFFFFFF0000
(1620515264.624885) can0 281#1920C30F06580000
(1620515264.625009) can0 381#06006E7DBBFF
(1620515264.625131) can0 481#00000500000000
(1620515264.626505) can0 581#406C600000000000
(1620515264.626742) can0 420#020001
(1620515264.628013) can0 601#2B71600000000000
(1620515264.628136) can0 581#6071600000000000
(1620515264.629510) can0 102#012A014C027202EE
(1620515264.650897) can0 102#0128014A02B302DA
(1620515264.652266) can0 601#2B71600000000000
(1620515264.652388) can0 581#6071600000000000
(1620515264.672528) can0 102#01270150026E02F5
(1620515264.678886) can0 601#2B71600000000000
(1620515264.679009) can0 581#6071600000000000
(1620515264.692906) can0 102#0129014C027702F9
(1620515264.704297) can0 601#2B71600000000000
(1620515264.704514) can0 581#6071600000000000
(1620515264.714641) can0 102#012A014C026F02F9
(1620515264.731025) can0 601#2B71600000000000
(1620515264.733634) can0 581#6071600000000000
(1620515264.736258) can0 102#0129014B026802E4
(1620515264.756400) can0 601#2B71600000000000
(1620515264.756516) can0 102#01270150026F02F8
(1620515264.756639) can0 581#6071600000000000
(1620515264.778022) can0 102#01280149026902E8
(1620515264.783140) can0 601#2B71600000000000
(1620515264.783266) can0 581#6071600000000000
(1620515264.798400) can0 102#0128014A027102ED
(1620515264.808509) can0 601#2B71600000000000
(1620515264.812383) can0 581#6071600000000000
(1620515264.820012) can0 102#0129014B026902E9
(1620515264.835117) can0 601#2B71600000000000
(1620515264.835234) can0 581#6071600000000000
(1620515264.841612) can0 102#0128014A027B02F6
(1620515264.860524) can0 601#2B71600000000000
(1620515264.861888) can0 581#6071600000000000
(1620515264.862012) can0 102#0129014C027402F6
(1620515264.874648) can0 080#00
(1620515264.874767) can0 181#21006FFFFFFF0000
(1620515264.874881) can0 281#1920C30F06580000
(1620515264.876260) can0 381#0600AE7D9BFF
(1620515264.876385) can0 481#00000500000000
(1620515264.876509) can0 581#4077600000000000
(1620515264.876639) can0 581#406C600000000000
(1620515264.878008) can0 420#020001
(1620515264.883133) can0 102#0129014A026F02F1
(1620515264.887006) can0 601#2B71600000000000
(1620515264.889632) can0 581#6071600000000000
(1620515264.904778) can0 102#012A014C026A02EB
(1620515264.913648) can0 601#2B71600000000000
(1620515264.913764) can0 581#6071600000000000
(1620515264.925135) can0 102#0128014A024B02DB
(1620515264.939026) can0 601#2B71600000000000
(1620515264.939139) can0 581#6071600000000000
(1620515264.946768) can0 102#0128014C027C02F8
(1620515264.965651) can0 601#2B71600000000000
(1620515264.968263) can0 102#0129014B027902F1
(1620515264.968410) can0 581#6071600000000000
(1620515264.988522) can0 102#0128014A027002F6
(1620515264.991139) can0 601#2B71600000000000
(1620515264.991296) can0 581#6071600000000000
(1620515265.010275) can0 102#0129014C025802DA
(1620515265.017895) can0 601#2B71600000000000
(1620515265.018029) can0 581#6071600000000000
(1620515265.030644) can0 102#0128014A026E02F3
(1620515265.043268) can0 601#2B71600000000000
(1620515265.045885) can0 581#6071600000000000
(1620515265.052270) can0 102#0129014A027602FA
(1620515265.069897) can0 601#2B71600000000000
(1620515265.070016) can0 581#6071600000000000
(1620515265.073889) can0 102#0129014B027102EE
(1620515265.094027) can0 102#0129014A026E02F8
(1620515265.095383) can0 601#2B71600000000000
(1620515265.095559) can0 581#6071600000000000
(1620515265.115650) can0 102#0129014B026C02E8
(1620515265.122010) can0 601#2B71600000000000
(1620515265.124634) can0 581#6071600000000000
(1620515265.126006) can0 080#00
(1620515265.126138) can0 181#21006FFFFFFF0000
(1620515265.126254) can0 281#1920C30F06580000
(1620515265.126378) can0 381#06006E7DCBFF
(1620515265.126507) can0 481#00000500000000
(1620515265.127880) can0 581#406C600000000000
(1620515265.128006) can0 420#020001
(1620515265.136887) can0 102#0126014F027102ED
(1620515265.148275) can0 601#2B71600000000000
(1620515265.148387) can0 581#6071600000000000
(1620515265.157260) can0 102#0129014C027802F0
(1620515265.173651) can0 601#2B71600000000000
(1620515265.173770) can0 581#6071600000000000
(1620515265.178888) can0 102#0129014A026402E9
(1620515265.200278) can0 601#2B71600000000000
(1620515265.200469) can0 102#01280148027002EA
(1620515265.203009) can0 581#6071600000000000
(1620515265.220648) can0 102#01270153027002EC
(1620515265.225769) can0 601#2B71600000000000
(1620515265.227136) can0 581#6071600000000000
(1620515265.242273) can0 102#01270151027502F5
(1620515265.252414) can0 601#2B71600000000000
(1620515265.252529) can0 581#6071600000000000
(1620515265.263887) can0 102#0129014C026D02F2
(1620515265.277775) can0 601#2B71600000000000
(1620515265.280385) can0 581#6071600000000000
(1620515265.284262) can0 102#0128014A027202F0
(1620515265.304400) can0 601#2B71600000000000
(1620515265.304515) can0 581#6071600000000000
(1620515265.305884) can0 102#0128014A02C002E0
(1620515265.327276) can0 102#0129014C027302F3
(1620515265.329891) can0 601#2B71600000000000
(1620515265.331256) can0 581#6071600000000000
(1620515265.347654) can0 102#0129014B026D02F2
(1620515265.356522) can0 601#2B71600000000000
(1620515265.359139) can0 581#6071600000000000
(1620515265.369264) can0 102#01280149026F0300
(1620515265.376903) can0 080#00
(1620515265.377012) can0 181#21006FFFFFFF0000
(1620515265.377141) can0 281#1920C30F06580000
(1620515265.377254) can0 381#0600AE7D9BFF
(1620515265.377379) can0 481#00000500000000
(1620515265.378755) can0 581#406C600000000000
(1620515265.378882) can0 420#020001
(1620515265.382759) can0 601#2B71600000000000
(1620515265.382888) can0 581#6071600000000000
(1620515265.390517) can0 102#0124014C026D02F2
(1620515265.408153) can0 601#2B71600000000000
(1620515265.409507) can0 581#6071600000000000
(1620515265.410887) can0 102#0128014A026C02ED
(1620515265.432279) can0 102#0129014B026B02ED
(1620515265.434901) can0 601#2B71600000000000
(1620515265.436263) can0 581#6071600000000000
(1620515265.453864) can0 102#0129014B028E02CB
(1620515265.460238) can0 601#2B71600000000000
(1620515265.461636) can0 581#6071600000000000
(1620515265.474271) can0 102#01260150026C02ED
(1620515265.486903) can0 601#2B71600000000000
(1620515265.487013) can0 581#6071600000000000
(1620515265.495886) can0 102#0129014C027402F8
(1620515265.513521) can0 601#2B71600000000000
(1620515265.514882) can0 581#6071600000000000
(1620515265.516257) can0 102#0129014A027602FA
(1620515265.537649) can0 102#0129014C027202F1
(1620515265.539009) can0 601#2B71600000000000
(1620515265.539133) can0 581#6071600000000000
(1620515265.559271) can0 102#012A014D026C02EA
(1620515265.565635) can0 601#2B71600000000000
(1620515265.565845) can0 581#6071600000000000
(1620515265.579650) can0 102#012A014D026F02F6
(1620515265.591020) can0 601#2B71600000000000
(1620515265.592388) can0 581#6071600000000000
(1620515265.601254) can0 102#012A014D027102F0
(1620515265.617647) can0 601#2B71600000000000
(1620515265.617763) can0 581#6071600000000000
(1620515265.622883) can0 102#0128014A027802F8
(1620515265.626759) can0 080#00
(1620515265.628150) can0 181#210070FFFFFF0000
(1620515265.628272) can0 281#1920C10F06580000
(1620515265.628390) can0 381#06006E7EBBFF
(1620515265.628507) can0 481#00000500000000
(1620515265.629882) can0 581#406C600000000000
(1620515265.630014) can0 420#020001
(1620515265.643887) can0 102#0129014C027902F2
(1620515265.644013) can0 601#2B71600000000000
(1620515265.644134) can0 581#6071600000000000
(1620515265.664273) can0 102#0129014C027402F7
(1620515265.669387) can0 601#2B71600000000000
(1620515265.670757) can0 581#6071600000000000
(1620515265.685895) can0 102#012A014C027102F0
(1620515265.696015) can0 601#2B71600000000000
(1620515265.696145) can0 581#6071600000000000
(1620515265.706269) can0 102#01290149026E02F4
(1620515265.721398) can0 601#2B71600000000000
(1620515265.722757) can0 581#6071600000000000
(1620515265.727882) can0 102#012A014C027002F1
(1620515265.748023) can0 601#2B71600000000000
(1620515265.749397) can0 102#0129014B028202C3
(1620515265.749532) can0 581#6071600000000000
(1620515265.769649) can0 102#0125014E027202F0
(1620515265.773504) can0 601#2B71600000000000
(1620515265.774880) can0 581#6071600000000000
(1620515265.791271) can0 102#0129014C026E02F4
(1620515265.800141) can0 601#2B71600000000000
(1620515265.800274) can0 581#6071600000000000
(1620515265.811641) can0 102#0129014B026E02F4
(1620515265.825517) can0 601#2B71600000000000
(1620515265.826882) can0 581#6071600000000000
(1620515265.833266) can0 102#0129014B027102ED
(1620515265.852151) can0 601#2B71600000000000
(1620515265.852262) can0 581#6071600000000000
(1620515265.854884) can0 102#012A014C026202E8
(1620515265.875014) can0 102#0128014A028202C4
(1620515265.877641) can0 080#00
(1620515265.879006) can0 181#21006FFFFFFF0000
(1620515265.879135) can0 281#1920C30F06580000
(1620515265.879257) can0 381#06006E7DBBFF
(1620515265.879385) can0 481#00000500000000
(1620515265.880756) can0 581#406C600000000000
(1620515265.880889) can0 420#020001
(1620515265.882256) can0 601#2B71600000000000
(1620515265.882390) can0 581#6071600000000000
(1620515265.896272) can0 102#01270152026A02EC
(1620515265.903885) can0 601#2B71600000000000
(1620515265.905257) can0 581#6071600000000000
(1620515265.917889) can0 102#0128014A026E02F9
(1620515265.930523) can0 601#2B71600000000000
(1620515265.930672) can0 581#6071600000000000
(1620515265.938265) can0 102#0128014B027102E5
(1620515265.955887) can0 601#2B71600000000000
(1620515265.957259) can0 581#6071600000000000
(1620515265.959881) can0 102#0129014B026C02EE
(1620515265.981275) can0 102#012A014C026D02F1
(1620515265.982634) can0 601#2B71600000000000
(1620515265.984008) can0 581#6071600000000000
(1620515266.001632) can0 102#0128014B026902E5
(1620515266.008011) can0 601#2B71600000000000
(1620515266.009382) can0 581#6071600000000000
(1620515266.023268) can0 102#0129014C027402F2
(1620515266.034644) can0 601#2B71600000000000
(1620515266.034790) can0 581#6071600000000000
(1620515266.044889) can0 102#0129014B026E02F5
(1620515266.061272) can0 601#2B71600000000000
(1620515266.061420) can0 581#6071600000000000
(1620515266.065258) can0 102#0128014A027302F2
(1620515266.086648) can0 102#0128014A027102F0
(1620515266.086886) can0 601#2B71600000000000
(1620515266.086908) can0 581#6071600000000000
(1620515266.108274) can0 102#0128014A026E02F3
(1620515266.113385) can0 601#2B71600000000000
(1620515266.113505) can0 581#6071600000000000
(1620515266.128644) can0 102#0128014B028D02D1
(1620515266.128766) can0 080#00
(1620515266.130131) can0 581#4077600000000000
(1620515266.130258) can0 581#406C600000000000
(1620515266.131629) can0 420#020001
(1620515266.131757) can0 181#21006FFFFFFF0000
(1620515266.131884) can0 281#1920C30F06580000
(1620515266.132003) can0 381#06006E7ECBFF
(1620515266.132128) can0 481#00000500000000
(1620515266.138507) can0 601#2B71600000000000
(1620515266.139882) can0 581#6071600000000000
(1620515266.150014) can0 102#0126014F026F02F9
(1620515266.165141) can0 601#2B71600000000000
(1620515266.165289) can0 581#6071600000000000
(1620515266.170380) can0 102#0128014A027C02F8
(1620515266.191779) can0 601#2B71600000000000
(1620515266.191893) can0 102#012A014D027102ED
(1620515266.194507) can0 581#6071600000000000
(1620515266.213387) can0 102#0129014B026D02F4
(1620515266.217264) can0 601#2B71600000000000
(1620515266.217390) can0 581#6071600000000000
(1620515266.233775) can0 102#0129014B027F0302
(1620515266.242636) can0 601#2B71600000000000
(1620515266.244017) can0 581#6071600000000000
(1620515266.255381) can0 102#01260150026E02F0
(1620515266.269272) can0 601#2B71600000000000
(1620515266.271883) can0 581#6071600000000000
(1620515266.277013) can0 102#0129014A027C02F8
(1620515266.295889) can0 601#2B71600000000000
(1620515266.296025) can0 581#6071600000000000
(1620515266.297382) can0 102#0129014B026D02F1
(1620515266.318779) can0 102#0129014B026F02F6
(1620515266.321381) can0 601#2B71600000000000
(1620515266.321507) can0 581#6071600000000000
(1620515266.340387) can0 102#0129014B027802EE
(1620515266.348011) can0 601#2B71600000000000
(1620515266.350633) can0 581#6071600000000000
(1620515266.360768) can0 102#0129014B027402F4
(1620515266.373391) can0 601#2B71600000000000
(1620515266.373507) can0 581#6071600000000000
(1620515266.379880) can0 080#00
(1620515266.381257) can0 581#4077600000000000
(1620515266.381383) can0 581#406C600000000000
(1620515266.381504) can0 181#21006FFFFFFF0000
(1620515266.381641) can0 102#0129014A022302C1
(1620515266.383006) can0 281#1920C30F06580000
(1620515266.383138) can0 381#06006E7E9BFF
(1620515266.383257) can0 420#020001
(1620515266.383380) can0 481#00000500000000
(1620515266.399772) can0 601#2B71600000000000
(1620515266.399885) can0 581#6071600000000000
(1620515266.402514) can0 102#0125014D027202F4
(1620515266.423887) can0 102#0129014B027B02F0
(1620515266.425259) can0 601#2B71600000000000
(1620515266.429131) can0 581#6071600000000000
(1620515266.445535) can0 102#0128014A027302F1
(1620515266.451886) can0 601#2B71600000000000
(1620515266.452009) can0 581#6071600000000000
(1620515266.465886) can0 102#0129014C02760301
(1620515266.478522) can0 601#2B71600000000000
(1620515266.478639) can0 581#6071600000000000
(1620515266.487510) can0 102#0125014E027302F0
(1620515266.503895) can0 601#2B71600000000000
(1620515266.506508) can0 581#6071600000000000
(1620515266.509130) can0 102#0128014A026D02F4
(1620515266.529275) can0 102#012A014C027302F3
(1620515266.530633) can0 601#2B71600000000000
(1620515266.530773) can0 581#6071600000000000
(1620515266.550897) can0 102#0129014C027402F3
(1620515266.556011) can0 601#2B71600000000000
(1620515266.556152) can0 581#6071600000000000
(1620515266.572524) can0 102#0126014F027B02F8
(1620515266.582642) can0 601#2B71600000000000
(1620515266.585260) can0 581#6071600000000000
(1620515266.592880) can0 102#0129014C026202E3
(1620515266.608023) can0 601#2B71600000000000
(1620515266.609385) can0 581#6071600000000000
(1620515266.614508) can0 102#0128014A028802CA
(1620515266.630903) can0 080#00
(1620515266.631026) can0 581#4077600000000000
(1620515266.632384) can0 181#21006FFFFFFF0000
(1620515266.632507) can0 281#1920C30FFE570000
(1620515266.632630) can0 381#06006E7D9BFF
(1620515266.632760) can0 481#00000500000000
(1620515266.632879) can0 420#020001
(1620515266.634254) can0 601#2B71600000000000
(1620515266.634381) can0 581#6071600000000000
(1620515266.635756) can0 102#01260150027202F0
(1620515266.655899) can0 102#0128014B026B02EC
(1620515266.661013) can0 601#2B71600000000000
(1620515266.663637) can0 581#6071600000000000
(1620515266.677515) can0 102#0129014B026D02F2
(1620515266.686384) can0 601#2B71600000000000
(1620515266.686514) can0 581#6071600000000000
(1620515266.699143) can0 102#0129014B027002EC
(1620515266.713022) can0 601#2B71600000000000
(1620515266.713141) can0 581#6071600000000000
(1620515266.719509) can0 102#0128014A026C02ED
(1620515266.738405) can0 601#2B71600000000000
(1620515266.741009) can0 102#0129014C027F0303
(1620515266.741136) can0 581#6071600000000000
(1620515266.762525) can0 102#01270152026A02E8
(1620515266.765132) can0 601#2B71600000000000
(1620515266.765260) can0 581#6071600000000000
(1620515266.782901) can0 102#0128014A026F02F0
(1620515266.790525) can0 601#2B71600000000000
(1620515266.791883) can0 581#6071600000000000
(1620515266.804510) can0 102#0128014A026D02F5
(1620515266.817115) can0 601#2B71600000000000
(1620515266.819752) can0 581#6071600000000000
(1620515266.824884) can0 102#0129014B026F02F8
(1620515266.842523) can0 601#2B71600000000000
(1620515266.843884) can0 581#6071600000000000
(1620515266.846516) can0 102#0129014B028102C3
(1620515266.867901) can0 102#0126014F026D02F2
(1620515266.869260) can0 601#2B71600000000000
(1620515266.869410) can0 581#6071600000000000
(1620515266.880763) can0 080#00
(1620515266.882130) can0 181#21006FFFFFFF0000
(1620515266.882258) can0 281#1920C30FFE570000
(1620515266.882386) can0 381#06006E7DCBFF
(1620515266.882506) can0 481#00000500000000
(1620515266.882630) can0 581#406C600000000000
(1620515266.884008) can0 420#020001
(1620515266.889136) can0 102#0129014A027302F2
(1620515266.895507) can0 601#2B71600000000000
(1620515266.896881) can0 581#6071600000000000
(1620515266.909523) can0 102#0129014B029902E1
(1620515266.920888) can0 601#2B71600000000000
(1620515266.922257) can0 581#6071600000000000
(1620515266.931138) can0 102#0128014A027C02FF
(1620515266.947538) can0 601#2B71600000000000
(1620515266.947642) can0 581#6071600000000000
(1620515266.951506) can0 102#012A014C027B02F5
(1620515266.972892) can0 102#0129014C026D02F2
(1620515266.973015) can0 601#2B71600000000000
(1620515266.975636) can0 581#6071600000000000
(1620515266.994524) can0 102#0129014B026202EE
(1620515266.999651) can0 601#2B71600000000000
(1620515266.999764) can0 581#6071600000000000
(1620515267.014907) can0 102#012A014F026D02F2
(1620515267.026282) can0 601#2B71600000000000
(1620515267.026396) can0 581#6071600000000000
(1620515267.036514) can0 102#0129014C028002BD
(1620515267.051659) can0 601#2B71600000000000
(1620515267.054278) can0 581#6071600000000000
(1620515267.058140) can0 102#01260150026402E8
(1620515267.078281) can0 601#2B71600000000000
(1620515267.078391) can0 581#6071600000000000
(1620515267.078509) can0 102#0128014B027202F2
(1620515267.099904) can0 102#0128014A027102EC
(1620515267.103762) can0 601#2B71600000000000
(1620515267.103888) can0 581#6071600000000000
(1620515267.121525) can0 102#0129014C026B02F0
(1620515267.130397) can0 601#2B71600000000000
(1620515267.131757) can0 581#6071600000000000
(1620515267.131958) can0 080#00
(1620515267.132007) can0 281#1920C30FFE570000
(1620515267.132135) can0 181#210070FFFFFF0000
(1620515267.132254) can0 381#06006E7EBBFF
(1620515267.132379) can0 481#00000500000000
(1620515267.133759) can0 581#406C600000000000
(1620515267.135132) can0 420#020001
(1620515267.141507) can0 102#0128014A026A02EC
(1620515267.156677) can0 601#2B71600000000000
(1620515267.156760) can0 581#6071600000000000
(1620515267.163141) can0 102#0129014C026F02F8
(1620515267.182017) can0 601#2B71600000000000
(1620515267.182150) can0 581#6071600000000000
(1620515267.184763) can0 102#0129014B027402F5
(1620515267.204904) can0 102#012A014D027502F5
(1620515267.208758) can0 601#2B71600000000000
(1620515267.210131) can0 581#6071600000000000
(1620515267.226522) can0 102#012A014D026A02EA
(1620515267.234147) can0 601#2B71600000000000
(1620515267.234263) can0 581#6071600000000000
(1620515267.248137) can0 102#01280149027502F9
(1620515267.260771) can0 601#2B71600000000000
(1620515267.260887) can0 581#6071600000000000
(1620515267.268520) can0 102#012A014C023102CD
(1620515267.286140) can0 601#2B71600000000000
(1620515267.287518) can0 581#6071600000000000
(1620515267.290141) can0 102#01280149026802E5
(1620515267.311533) can0 102#0129014B026B02EC
(1620515267.312883) can0 601#2B71600000000000
(1620515267.313007) can0 581#6071600000000000
(1620515267.331893) can0 102#0128014A028102CB
(1620515267.338273) can0 601#2B71600000000000
(1620515267.339628) can0 581#6071600000000000
(1620515267.353504) can0 102#01260150026D02F2
(1620515267.364895) can0 601#2B71600000000000
(1620515267.366259) can0 581#6071600000000000
(1620515267.373892) can0 102#0128014B026A02EA
(1620515267.382761) can0 080#00
(1620515267.382929) can0 181#21006FFFFFFF0000
(1620515267.383040) can0 281#1920C30FFE570000
(1620515267.383132) can0 381#06006E7DBBFF
(1620515267.383264) can0 481#00000500000000
(1620515267.384634) can0 581#406C600000000000
(1620515267.386006) can0 420#020001
(1620515267.391131) can0 601#2B71600000000000
(1620515267.391255) can0 581#6071600000000000
(1620515267.395133) can0 102#01280149027102EE
(1620515267.416529) can0 102#0129014C026F02F1
(1620515267.416640) can0 601#2B71600000000000
(1620515267.416764) can0 581#6071600000000000
(1620515267.438148) can0 102#0129014C027302EE
(1620515267.443273) can0 601#2B71600000000000
(1620515267.444632) can0 581#6071600000000000
(1620515267.458515) can0 102#0129014B027102F3
(1620515267.468613) can0 601#2B71600000000000
(1620515267.469980) can0 581#6071600000000000
(1620515267.480153) can0 102#0129014C026D02FA
(1620515267.495273) can0 601#2B71600000000000
(1620515267.495385) can0 581#6071600000000000
(1620515267.500507) can0 102#012A014C027002E9
(1620515267.520649) can0 601#2B71600000000000
(1620515267.522007) can0 102#0129014C027902F4
(1620515267.522228) can0 581#6071600000000000
(1620515267.543528) can0 102#012A014C028202C8
(1620515267.547388) can0 601#2B71600000000000
(1620515267.547525) can0 581#6071600000000000
(1620515267.563894) can0 102#0125014F026E02F6
(1620515267.574022) can0 601#2B71600000000000
(1620515267.574130) can0 581#6071600000000000
(1620515267.585510) can0 102#0129014B026302E8
(1620515267.599394) can0 601#2B71600000000000
(1620515267.600758) can0 581#6071600000000000
(1620515267.605882) can0 102#0129014A027802F3
(1620515267.626022) can0 601#2B71600000000000
(1620515267.626139) can0 581#6071600000000000
(1620515267.627524) can0 102#012A014D026A02EB
(1620515267.633888) can0 080#00
(1620515267.634019) can0 181#210070FFFFFF0000
(1620515267.634136) can0 281#1920C30FFE570000
(1620515267.634255) can0 381#06006E7EABFF
(1620515267.634380) can0 481#00000500000000
(1620515267.634503) can0 581#4077600000000000
(1620515267.635881) can0 581#406C600000000000
(1620515267.636011) can0 420#020001
(1620515267.648648) can0 102#0129014B026C02F0
(1620515267.651258) can0 601#2B71600000000000
(1620515267.652630) can0 581#6071600000000000
(1620515267.670269) can0 102#0128014A027202F0
(1620515267.677904) can0 601#2B71600000000000
(1620515267.678070) can0 581#6071600000000000
(1620515267.690641) can0 102#0128014A027602FB
(1620515267.703266) can0 601#2B71600000000000
(1620515267.704635) can0 581#6071600000000000
(1620515267.712263) can0 102#012A014C027B02F6
(1620515267.729896) can0 601#2B71600000000000
(1620515267.730010) can0 581#6071600000000000
(1620515267.732632) can0 102#012B014E026C02F0
(1620515267.754025) can0 102#0128014A027902F2
(1620515267.755381) can0 601#2B71600000000000
(1620515267.756758) can0 581#6071600000000000
(1620515267.775649) can0 102#0129014B027E02FF
(1620515267.782011) can0 601#2B71600000000000
(1620515267.782214) can0 581#6071600000000000
(1620515267.796025) can0 102#012C014F027802F3
(1620515267.807385) can0 601#2B71600000000000
(1620515267.808771) can0 581#6071600000000000
(1620515267.817644) can0 102#0128014A026502ED
(1620515267.834026) can0 601#2B71600000000000
(1620515267.835384) can0 581#6071600000000000
(1620515267.838008) can0 102#0129014B026D02F1
(1620515267.859402) can0 102#0129014B026E02FE
(1620515267.859536) can0 601#2B71600000000000
(1620515267.860883) can0 581#6071600000000000
(1620515267.881048) can0 102#012A014D027402F3
(1620515267.883647) can0 080#00
(1620515267.885007) can0 181#21006FFFFFFF0000
(1620515267.885133) can0 281#1920C30FFE570000
(1620515267.885261) can0 381#06006E7ECBFF
(1620515267.885381) can0 481#00000500000000
(1620515267.886756) can0 581#406C600000000000
(1620515267.886886) can0 420#020001
(1620515267.888257) can0 601#2B71600000000000
(1620515267.889632) can0 581#6071600000000000
(1620515267.902271) can0 102#012A014B027602F9
(1620515267.912401) can0 601#2B71600000000000
(1620515267.912517) can0 581#6071600000000000
(1620515267.922645) can0 102#0129014B027002EB
(1620515267.937775) can0 601#2B71600000000000
(1620515267.939133) can0 581#6071600000000000
(1620515267.944261) can0 102#0129014B027802E0
(1620515267.964397) can0 601#2B71600000000000
(1620515267.964516) can0 102#0128014B025D02EC
(1620515267.967136) can0 581#6071600000000000
(1620515267.986024) can0 102#0128014A027002EA
(1620515267.989906) can0 601#2B71600000000000
(1620515267.991255) can0 581#6071600000000000
(1620515268.007652) can0 102#0128014B026E02F4
(1620515268.016521) can0 601#2B71600000000000
(1620515268.016649) can0 581#6071600000000000
(1620515268.028013) can0 102#0129014B026C02ED
(1620515268.043149) can0 601#2B71600000000000
(1620515268.045760) can0 581#6071600000000000
(1620515268.049637) can0 102#012A014C026D02ED
(1620515268.068529) can0 601#2B71600000000000
(1620515268.068640) can0 581#6071600000000000
(1620515268.071263) can0 102#012A014D026502EE
(1620515268.091371) can0 102#0129014C025902E0
(1620515268.095237) can0 601#2B71600000000000
(1620515268.095359) can0 581#6071600000000000
(1620515268.113027) can0 102#0128014A027202F0
(1620515268.120637) can0 601#2B71600000000000
(1620515268.123273) can0 581#6071600000000000
(1620515268.133393) can0 102#0129014B027002F6
(1620515268.134762) can0 080#00
(1620515268.134889) can0 181#21006FFFFFFF0000
(1620515268.135011) can0 281#1920C30FFE570000
(1620515268.135131) can0 381#06006E7DBBFF
(1620515268.135253) can0 481#00000500000000
(1620515268.136631) can0 581#406C600000000000
(1620515268.138007) can0 420#020001
(1620515268.146886) can0 601#2B71600000000000
(1620515268.147009) can0 581#6071600000000000
(1620515268.154642) can0 102#012A014D027002ED
(1620515268.173538) can0 601#2B71600000000000
(1620515268.173637) can0 581#6071600000000000
(1620515268.176264) can0 102#012C014F027402F2
(1620515268.197649) can0 102#012A014C027202F0
(1620515268.199019) can0 601#2B71600000000000
(1620515268.201637) can0 581#6071600000000000
(1620515268.218023) can0 102#0129014B027A02FB
(1620515268.225646) can0 601#2B71600000000000
(1620515268.225759) can0 581#6071600000000000
(1620515268.239673) can0 102#012A014C027202F0
(1620515268.251027) can0 601#2B71600000000000
(1620515268.251141) can0 581#6071600000000000
(1620515268.260023) can0 102#0129014B026F02FA
(1620515268.277651) can0 601#2B71600000000000
(1620515268.280258) can0 581#6071600000000000
(1620515268.281632) can0 102#012A014D026902E8
(1620515268.303025) can0 102#0128014A026702F2
(1620515268.303135) can0 601#2B71600000000000
(1620515268.304509) can0 581#6071600000000000
(1620515268.323399) can0 102#0129014B029A02D4
(1620515268.329772) can0 601#2B71600000000000
(1620515268.329892) can0 581#6071600000000000
(1620515268.345027) can0 102#01270152027702F5
(1620515268.355148) can0 601#2B71600000000000
(1620515268.357765) can0 581#6071600000000000
(1620515268.366642) can0 102#012A014D026D02F1
(1620515268.381772) can0 601#2B71600000000000
(1620515268.381890) can0 581#6071600000000000
(1620515268.385758) can0 080#00
(1620515268.385894) can0 181#21006FFFFFFF0000
(1620515268.386019) can0 281#1920C30FFE570000
(1620515268.386151) can0 381#06006E7D9BFF
(1620515268.386302) can0 481#00000500000000
(1620515268.387632) can0 102#0129014B026F02F8
(1620515268.387766) can0 581#406C600000000000
(1620515268.389130) can0 420#020001
(1620515268.408023) can0 601#2B71600000000000
(1620515268.408139) can0 581#6071600000000000
(1620515268.408260) can0 102#0128014B026D02F0
(1620515268.429651) can0 102#0129014A026802E5
(1620515268.433511) can0 601#2B71600000000000
(1620515268.436132) can0 581#6071600000000000
(1620515268.450023) can0 102#0128014A027102E4
(1620515268.460146) can0 601#2B71600000000000
(1620515268.460265) can0 581#6071600000000000
(1620515268.471649) can0 102#012A014C026D02F5
(1620515268.485525) can0 601#2B71600000000000
(1620515268.486885) can0 581#6071600000000000
(1620515268.493265) can0 102#012A014C026C02F1
(1620515268.512148) can0 601#2B71600000000000
(1620515268.513520) can0 102#0129014B026E02F3
(1620515268.514881) can0 581#6071600000000000
(1620515268.535026) can0 102#0128014A027402F3
(1620515268.537635) can0 601#2B71600000000000
(1620515268.539028) can0 581#6071600000000000
(1620515268.556659) can0 102#012A014C026A02EB
(1620515268.564296) can0 601#2B71600000000000
(1620515268.564520) can0 581#6071600000000000
(1620515268.577159) can0 102#0129014B026D02F1
(1620515268.589777) can0 601#2B71600000000000
(1620515268.592386) can0 581#6071600000000000
(1620515268.598759) can0 102#0129014C027202EE
(1620515268.616406) can0 601#2B71600000000000
(1620515268.616518) can0 581#6071600000000000
(1620515268.619130) can0 102#012A014D02770304
(1620515268.636775) can0 080#00
(1620515268.636966) can0 581#4077600000000000
(1620515268.638261) can0 581#406C600000000000
(1620515268.639631) can0 181#21006FFFFFFF0000
(1620515268.639768) can0 281#1920C30FFE570000
(1620515268.639884) can0 381#06006E7DBBFF
(1620515268.640021) can0 481#00000500000000
(1620515268.640131) can0 102#0125014F027402FC
(1620515268.642756) can0 601#2B71600000000000
(1620515268.642965) can0 581#6071600000000000
(1620515268.661772) can0 102#012A014C028802C4
(1620515268.668138) can0 601#2B71600000000000
(1620515268.670759) can0 581#6071600000000000
(1620515268.682145) can0 102#01260150026F02FD
(1620515268.694774) can0 601#2B71600000000000
(1620515268.694887) can0 581#6071600000000000
(1620515268.703763) can0 102#012A014C027702FA
(1620515268.721406) can0 601#2B71600000000000
(1620515268.721515) can0 581#6071600000000000
(1620515268.725399) can0 102#012A014E026A02EB
(1620515268.745526) can0 102#0129014C026D02F2
(1620515268.746882) can0 601#2B71600000000000
(1620515268.748260) can0 581#6071600000000000
(1620515268.767121) can0 102#0129014A026C02EC
(1620515268.773495) can0 601#2B71600000000000
(1620515268.773612) can0 581#6071600000000000
(1620515268.788777) can0 102#0128014A027402F5
(1620515268.798898) can0 601#2B71600000000000
(1620515268.799015) can0 581#6071600000000000
(1620515268.809152) can0 102#0129014C026C02EB
(1620515268.825523) can0 601#2B71600000000000
(1620515268.826884) can0 581#6071600000000000
(1620515268.830765) can0 102#0129014B026E02F5
(1620515268.850899) can0 601#2B71600000000000
(1620515268.851014) can0 102#0129014C025D02E5
(1620515268.852381) can0 581#6071600000000000
(1620515268.872526) can0 102#0129014B026B02E6
(1620515268.872640) can0 350#01
(1620515268.877761) can0 601#2B71600000000000
(1620515268.877895) can0 581#6071600000000000
(1620515268.886772) can0 080#00
(1620515268.888132) can0 581#4077600000000000
(1620515268.889511) can0 181#210070FFFFFF0000
(1620515268.889638) can0 281#1920C30FFE570000
(1620515268.889767) can0 381#07006E7DABFF
(1620515268.889893) can0 481#00000500000000
(1620515268.890018) can0 420#020001
(1620515268.893881) can0 102#012A014C027E02FE
(1620515268.902770) can0 000#8000
(1620515268.904133) can0 601#2B71600000000000
(1620515268.905508) can0 581#6071600000000000
(1620515268.905641) can0 000#8000
(1620515268.907006) can0 601#2B71600000000000
(1620515268.907130) can0 581#6071600000000000
(1620515268.907257) can0 000#8000
(1620515268.908632) can0 601#2B71600000000000
(1620515268.908760) can0 581#6071600000000000
(1620515268.908880) can0 000#8000
(1620515268.910259) can0 601#2B71600000000000
(1620515268.910387) can0 581#6071600000000000
(1620515268.911755) can0 000#8000
(1620515268.911886) can0 601#2B71600000000000
(1620515268.913261) can0 581#6071600000000000
(1620515268.913388) can0 000#8000
(1620515268.914757) can0 601#2B71600000000000
(1620515268.914888) can0 581#6071600000000000
(1620515268.915004) can0 102#012B014D027102EC
(1620515268.915132) can0 000#8000
(1620515268.916506) can0 601#2B71600000000000
(1620515268.916633) can0 581#6071600000000000
(1620515268.916756) can0 000#8000
(1620515268.918130) can0 601#2B71600000000000
(1620515268.918262) can0 581#6071600000000000
(1620515268.919632) can0 000#8000
(1620515268.921006) can0 601#2B71600000000000
(1620515268.921146) can0 581#6071600000000000
(1620515268.921258) can0 000#8000
(1620515268.922636) can0 601#2B71600000000000
(1620515268.922755) can0 581#6071600000000000
(1620515268.922882) can0 000#8000
(1620515268.924256) can0 601#2B71600000000000
(1620515268.924386) can0 581#6071600000000000
(1620515268.925755) can0 000#8000
(1620515268.925883) can0 601#2B71600000000000
(1620515268.927255) can0 581#6071600000000000
(1620515268.927382) can0 000#8000
(1620515268.928770) can0 601#2B71600000000000
(1620515268.928897) can0 581#6071600000000000
(1620515268.929033) can0 000#8000
(1620515268.930383) can0 601#2B71600000000000
(1620515268.930516) can0 581#6071600000000000
(1620515268.931883) can0 000#8000
(1620515268.932015) can0 601#2B71600000000000
(1620515268.933384) can0 581#6071600000000000
(1620515268.933506) can0 000#8000
(1620515268.934880) can0 601#2B71600000000000
(1620515268.935009) can0 581#6071600000000000
(1620515268.935129) can0 000#8000
(1620515268.936505) can0 102#0129014B026D02EB
(1620515268.936629) can0 601#2B71600000000000
(1620515268.936754) can0 581#6071600000000000
(1620515268.936880) can0 000#8000
(1620515268.938254) can0 601#2B71600000000000
(1620515268.938381) can0 581#6071600000000000
(1620515268.939755) can0 000#8000
(1620515268.939887) can0 601#2B71600000000000
(1620515268.941259) can0 581#6071600000000000
(1620515268.941384) can0 000#8000
(1620515268.942752) can0 601#2B71600000000000
(1620515268.942883) can0 581#6071600000000000
(1620515268.943009) can0 000#8000
(1620515268.944383) can0 601#2B71600000000000
(1620515268.944510) can0 581#6071600000000000
(1620515268.945884) can0 000#8000
(1620515268.946007) can0 601#2B71600000000000
(1620515268.947384) can0 581#6071600000000000
(1620515268.947528) can0 000#8000
(1620515268.948881) can0 601#2B71600000000000
(1620515268.949005) can0 581#6071600000000000
(1620515268.949128) can0 000#8000
(1620515268.950507) can0 601#2B71600000000000
(1620515268.950634) can0 581#6071600000000000
(1620515268.952008) can0 000#8000
(1620515268.952138) can0 601#2B71600000000000
(1620515268.952254) can0 581#6071600000000000
(1620515268.953629) can0 000#8000
(1620515268.955018) can0 601#2B71600000000000
(1620515268.955143) can0 581#6071600000000000
(1620515268.955252) can0 000#8000
(1620515268.956633) can0 601#2B71600000000000
(1620515268.956757) can0 581#6071600000000000
(1620515268.956882) can0 102#0128014A026802E8
(1620515268.957008) can0 000#8000
(1620515268.958382) can0 601#2B71600000000000
(1620515268.958506) can0 581#6071600000000000
(1620515268.959882) can0 000#8000
(1620515268.960007) can0 601#2B71600000000000
(1620515268.961380) can0 581#6071600000000000
(1620515268.961511) can0 000#8000
(1620515268.962881) can0 601#2B71600000000000
(1620515268.963008) can0 581#6071600000000000
(1620515268.963146) can0 000#8000
(1620515268.964510) can0 601#2B71600000000000
(1620515268.964639) can0 581#6071600000000000
(1620515268.966005) can0 000#8000
(1620515268.966133) can0 601#2B71600000000000
(1620515268.967528) can0 581#6071600000000000
(1620515268.967644) can0 000#8000
(1620515268.969003) can0 601#2B71600000000000
(1620515268.969134) can0 581#6071600000000000
(1620515268.969253) can0 000#8000
(1620515268.970632) can0 601#2B71600000000000
(1620515268.970762) can0 581#6071600000000000
(1620515268.970882) can0 000#8000
(1620515268.972260) can0 601#2B71600000000000
(1620515268.972382) can0 581#6071600000000000
(1620515268.973754) can0 000#8000
(1620515268.975139) can0 601#2B71600000000000
(1620515268.975254) can0 581#6071600000000000
(1620515268.975382) can0 000#8000
(1620515268.976756) can0 601#2B71600000000000
(1620515268.976881) can0 581#6071600000000000
(1620515268.977006) can0 000#8000
(1620515268.978381) can0 102#0128014A027002EE
(1620515268.978510) can0 601#2B71600000000000
(1620515268.978631) can0 581#6071600000000000
(1620515268.980004) can0 000#8000
(1620515268.980131) can0 601#2B71600000000000
(1620515268.981510) can0 581#6071600000000000
(1620515268.981626) can0 000#8000
(1620515268.983007) can0 601#2B71600000000000
(1620515268.983126) can0 581#6071600000000000
(1620515268.983253) can0 000#8000
(1620515268.984629) can0 601#2B71600000000000
(1620515268.984760) can0 581#6071600000000000
(1620515268.986133) can0 000#8000
(1620515268.986258) can0 601#2B71600000000000
(1620515268.986380) can0 581#6071600000000000
(1620515268.987755) can0 000#8000
(1620515268.989129) can0 601#2B71600000000000
(1620515268.989257) can0 581#6071600000000000
(1620515268.989378) can0 000#8000
(1620515268.990761) can0 601#2B71600000000000
(1620515268.990884) can0 581#6071600000000000
(1620515268.991004) can0 000#8000
(1620515268.992380) can0 601#2B71600000000000
(1620515268.992507) can0 581#6071600000000000
(1620515268.993881) can0 000#8000
(1620515268.995255) can0 601#2B71600000000000
(1620515268.995391) can0 581#6071600000000000
(1620515268.995553) can0 000#8000
(1620515268.996898) can0 601#2B71600000000000
(1620515268.997028) can0 581#6071600000000000
(1620515268.997146) can0 000#8000
(1620515268.998510) can0 601#2B71600000000000
(1620515268.998635) can0 581#6071600000000000
(1620515268.998757) can0 102#0129014B027C02F7
(1620515269.000132) can0 000#8000
(1620515269.000255) can0 601#2B71600000000000
(1620515269.001632) can0 581#6071600000000000
(1620515269.001763) can0 000#8000
(1620515269.003129) can0 601#2B71600000000000
(1620515269.003257) can0 581#6071600000000000
(1620515269.003382) can0 000#8000
(1620515269.004755) can0 601#2B71600000000000
(1620515269.004882) can0 581#6071600000000000
(1620515269.005003) can0 000#8000
(1620515269.006381) can0 601#2B71600000000000
(1620515269.006510) can0 581#6071600000000000
(1620515269.007883) can0 000#8000
(1620515269.009254) can0 601#2B71600000000000
(1620515269.009383) can0 581#6071600000000000
(1620515269.009505) can0 000#8000
(1620515269.010882) can0 601#2B71600000000000
(1620515269.011009) can0 581#6071600000000000
(1620515269.011130) can0 000#8000
(1620515269.012507) can0 601#2B71600000000000
(1620515269.012631) can0 581#6071600000000000
(1620515269.014012) can0 000#8000
(1620515269.014136) can0 601#2B71600000000000
(1620515269.015510) can0 581#6071600000000000
(1620515269.015634) can0 000#8000
(1620515269.017007) can0 601#2B71600000000000
(1620515269.017214) can0 581#6071600000000000
(1620515269.017251) can0 000#8000
(1620515269.018641) can0 601#2B71600000000000
(1620515269.018755) can0 581#6071600000000000
(1620515269.020132) can0 000#8000
(1620515269.020264) can0 102#012B014E026E02F1
(1620515269.020383) can0 601#2B71600000000000
(1620515269.021756) can0 581#6071600000000000
(1620515269.021881) can0 000#8000
(1620515269.023255) can0 601#2B71600000000000
(1620515269.023380) can0 581#6071600000000000
(1620515269.023555) can0 000#8000
(1620515269.024880) can0 601#2B71600000000000
(1620515269.025011) can0 581#6071600000000000
(1620515269.025130) can0 000#8000
(1620515269.026506) can0 601#2B71600000000000
(1620515269.026632) can0 581#6071600000000000
(1620515269.028006) can0 000#8000
(1620515269.029398) can0 601#2B71600000000000
(1620515269.029547) can0 581#6071600000000000
(1620515269.029626) can0 000#8000
(1620515269.031008) can0 601#2B71600000000000
(1620515269.031128) can0 581#6071600000000000
(1620515269.031254) can0 000#8000
(1620515269.032632) can0 601#2B71600000000000
(1620515269.032757) can0 581#6071600000000000
(1620515269.034130) can0 000#8000
(1620515269.034254) can0 601#2B71600000000000
(1620515269.035632) can0 581#6071600000000000
(1620515269.035755) can0 000#8000
(1620515269.037131) can0 601#2B71600000000000
(1620515269.037263) can0 581#6071600000000000
(1620515269.037381) can0 000#8000
(1620515269.038759) can0 601#2B71600000000000
(1620515269.038964) can0 581#6071600000000000
(1620515269.040266) can0 000#8000
(1620515269.040400) can0 601#2B71600000000000
(1620515269.041756) can0 581#6071600000000000
(1620515269.041889) can0 102#0129014C026002DD
(1620515269.042015) can0 000#8000
(1620515269.043381) can0 601#2B71600000000000
(1620515269.043517) can0 581#6071600000000000
(1620515269.043634) can0 000#8000
(1620515269.045006) can0 601#2B71600000000000
(1620515269.045130) can0 581#6071600000000000
(1620515269.045264) can0 000#8000
(1620515269.046629) can0 601#2B71600000000000
(1620515269.046759) can0 581#6071600000000000
(1620515269.048131) can0 000#8000
(1620515269.048256) can0 601#2B71600000000000
(1620515269.049629) can0 581#6071600000000000
(1620515269.049759) can0 000#8000
(1620515269.051129) can0 601#2B71600000000000
(1620515269.051256) can0 581#6071600000000000
(1620515269.051384) can0 000#8000
(1620515269.052754) can0 601#2B71600000000000
(1620515269.052881) can0 581#6071600000000000
(1620515269.054257) can0 000#8000
(1620515269.054389) can0 601#2B71600000000000
(1620515269.055771) can0 581#6071600000000000
(1620515269.055927) can0 000#8000
(1620515269.057259) can0 601#2B71600000000000
(1620515269.057384) can0 581#6071600000000000
(1620515269.057505) can0 000#8000
(1620515269.058884) can0 601#2B71600000000000
(1620515269.059008) can0 581#6071600000000000
(1620515269.060381) can0 000#8000
(1620515269.060636) can0 601#2B71600000000000
(1620515269.060660) can0 581#6071600000000000
(1620515269.062017) can0 000#8000
(1620515269.062138) can0 102#0129014B02A702E3
(1620515269.063525) can0 601#2B71600000000000
(1620515269.063640) can0 581#6071600000000000
(1620515269.063760) can0 000#8000
(1620515269.065131) can0 601#2B71600000000000
(1620515269.065257) can0 581#6071600000000000
(1620515269.065384) can0 000#8000
(1620515269.066754) can0 601#2B71600000000000
(1620515269.066882) can0 581#6071600000000000
(1620515269.068258) can0 000#8000
(1620515269.068383) can0 601#2B71600000000000
(1620515269.069754) can0 581#6071600000000000
(1620515269.069883) can0 000#8000
(1620515269.071260) can0 601#2B71600000000000
(1620515269.071381) can0 581#6071600000000000
(1620515269.071540) can0 000#8000
(1620515269.072882) can0 601#2B71600000000000
(1620515269.073011) can0 581#6071600000000000
(1620515269.074379) can0 000#8000
(1620515269.074507) can0 601#2B71600000000000
(1620515269.075880) can0 581#6071600000000000
(1620515269.076007) can0 000#8000
(1620515269.077382) can0 601#2B71600000000000
(1620515269.077501) can0 581#6071600000000000
(1620515269.077634) can0 000#8000
(1620515269.079004) can0 601#2B71600000000000
(1620515269.079131) can0 581#6071600000000000
(1620515269.079257) can0 000#8000
(1620515269.080649) can0 601#2B71600000000000
(1620515269.080776) can0 581#6071600000000000
(1620515269.082134) can0 000#8000
(1620515269.083509) can0 601#2B71600000000000
(1620515269.083636) can0 581#6071600000000000
(1620515269.083762) can0 102#0128014B026902EA
(1620515269.083886) can0 000#8000
(1620515269.085255) can0 601#2B71600000000000
(1620515269.085382) can0 581#6071600000000000
(1620515269.085502) can0 000#8000
(1620515269.086882) can0 601#2B71600000000000
(1620515269.087009) can0 581#6071600000000000
(1620515269.088380) can0 000#8000
(1620515269.088514) can0 601#2B71600000000000
(1620515269.089882) can0 581#6071600000000000
(1620515269.090009) can0 000#8000
(1620515269.091380) can0 601#2B71600000000000
(1620515269.091639) can0 581#6071600000000000
(1620515269.091660) can0 000#8000
(1620515269.093006) can0 601#2B71600000000000
(1620515269.093164) can0 581#6071600000000000
(1620515269.094516) can0 000#8000
(1620515269.094633) can0 601#2B71600000000000
(1620515269.094755) can0 581#6071600000000000
(1620515269.096132) can0 000#8000
(1620515269.097515) can0 601#2B71600000000000
(1620515269.097641) can0 581#6071600000000000
(1620515269.097781) can0 000#8000
(1620515269.099134) can0 601#2B71600000000000
(1620515269.099264) can0 581#6071600000000000
(1620515269.099382) can0 000#8000
(1620515269.100757) can0 601#2B71600000000000
(1620515269.100883) can0 581#6071600000000000
(1620515269.102256) can0 000#8000
(1620515269.103639) can0 601#2B71600000000000
(1620515269.103760) can0 581#6071600000000000
(1620515269.103886) can0 000#8000
(1620515269.105255) can0 102#0128014C027102F9
(1620515269.105389) can0 601#2B71600000000000
(1620515269.105508) can0 581#6071600000000000
(1620515269.105634) can0 000#8000
(1620515269.107005) can0 601#2B71600000000000
(1620515269.107125) can0 581#6071600000000000
(1620515269.108506) can0 000#8000
(1620515269.108637) can0 601#2B71600000000000
(1620515269.110005) can0 581#6071600000000000
(1620515269.110132) can0 000#8000
(1620515269.111521) can0 601#2B71600000000000
(1620515269.111633) can0 581#6071600000000000
(1620515269.111755) can0 000#8000
(1620515269.113130) can0 601#2B71600000000000
(1620515269.113260) can0 581#6071600000000000
(1620515269.113378) can0 000#8000
(1620515269.114756) can0 601#2B71600000000000
(1620515269.114883) can0 581#6071600000000000
(1620515269.116261) can0 000#8000
(1620515269.117630) can0 601#2B71600000000000
(1620515269.117757) can0 581#6071600000000000
(1620515269.117879) can0 000#8000
(1620515269.119254) can0 601#2B71600000000000
(1620515269.119379) can0 581#6071600000000000
(1620515269.119550) can0 000#8000
(1620515269.120880) can0 601#2B71600000000000
(1620515269.121006) can0 581#6071600000000000
(1620515269.122379) can0 000#8000
(1620515269.122508) can0 601#2B71600000000000
(1620515269.123883) can0 581#6071600000000000
(1620515269.124005) can0 000#8000
(1620515269.125408) can0 601#2B71600000000000
(1620515269.125633) can0 581#6071600000000000
(1620515269.125654) can0 102#012A014D027102EC
(1620515269.125777) can0 000#8000
(1620515269.127133) can0 601#2B71600000000000
(1620515269.127259) can0 581#6071600000000000
(1620515269.128630) can0 000#8000
(1620515269.128758) can0 601#2B71600000000000
(1620515269.128882) can0 581#6071600000000000
(1620515269.130256) can0 000#8000
(1620515269.131632) can0 601#2B71600000000000
(1620515269.131766) can0 581#6071600000000000
(1620515269.131883) can0 000#8000
(1620515269.133256) can0 601#2B71600000000000
(1620515269.133391) can0 581#6071600000000000
(1620515269.133504) can0 000#8000
(1620515269.134881) can0 601#2B71600000000000
(1620515269.135002) can0 581#6071600000000000
(1620515269.136382) can0 000#8000
(1620515269.137757) can0 601#2B71600000000000
(1620515269.137877) can0 581#6071600000000000
(1620515269.138003) can0 000#8000
(1620515269.139378) can0 601#2B71600000000000
(1620515269.139525) can0 581#6071600000000000
(1620515269.139631) can0 000#8000
(1620515269.141006) can0 601#2B71600000000000
(1620515269.141153) can0 581#6071600000000000
(1620515269.142508) can0 000#8000
(1620515269.142636) can0 601#2B71600000000000
(1620515269.144005) can0 581#6071600000000000
(1620515269.144134) can0 000#8000
(1620515269.145504) can0 601#2B71600000000000
(1620515269.145633) can0 581#6071600000000000
(1620515269.145753) can0 000#8000
(1620515269.147128) can0 102#012A014C026302E9
(1620515269.147342) can0 601#2B71600000000000
(1620515269.147389) can0 581#6071600000000000
(1620515269.147531) can0 000#8000
(1620515269.148885) can0 080#00
(1620515269.150260) can0 601#2B71600000000000
(1620515269.150391) can0 581#6071600000000000
(1620515269.151754) can0 581#4077600000000000
(1620515269.151885) can0 000#8000
(1620515269.153257) can0 581#406C600000000000
(1620515269.154630) can0 601#2B71600000000000
(1620515269.154762) can0 581#6071600000000000
(1620515269.154879) can0 420#000001
(1620515269.156256) can0 000#8000
(1620515269.157632) can0 601#2B71600000000000
(1620515269.157900) can0 581#6071600000000000
(1620515269.157924) can0 000#8000
(1620515269.159263) can0 601#2B71600000000000
(1620515269.159378) can0 581#6071600000000000
(1620515269.160757) can0 000#8000
(1620515269.160887) can0 601#2B71600000000000
(1620515269.161008) can0 581#6071600000000000
(1620515269.162380) can0 000#8000
(1620515269.163756) can0 601#2B71600000000000
(1620515269.163887) can0 581#6071600000000000
(1620515269.164009) can0 000#8000
(1620515269.165382) can0 601#2B71600000000000
(1620515269.165506) can0 581#6071600000000000
(1620515269.165635) can0 000#8000
(1620515269.167006) can0 601#2B71600000000000
(1620515269.167133) can0 581#6071600000000000
(1620515269.168512) can0 102#0128014B027102ED
(1620515269.168635) can0 000#8000
(1620515269.168762) can0 601#2B71600000000000
(1620515269.170132) can0 581#6071600000000000
(1620515269.170265) can0 000#8000
(1620515269.171633) can0 601#2B71600000000000
(1620515269.171762) can0 581#6071600000000000
(1620515269.171883) can0 000#8000
(1620515269.173255) can0 601#2B71600000000000
(1620515269.173386) can0 581#6071600000000000
(1620515269.174754) can0 000#8000
(1620515269.174888) can0 601#2B71600000000000
(1620515269.176258) can0 581#6071600000000000
(1620515269.176390) can0 000#8000
(1620515269.177756) can0 601#2B71600000000000
(1620515269.177880) can0 581#6071600000000000
(1620515269.178001) can0 000#8000
(1620515269.179379) can0 601#2B71600000000000
(1620515269.179547) can0 581#6071600000000000
(1620515269.179679) can0 000#8000
(1620515269.181009) can0 601#2B71600000000000
(1620515269.181134) can0 581#6071600000000000
(1620515269.182509) can0 000#8000
(1620515269.183878) can0 601#2B71600000000000
(1620515269.184011) can0 581#6071600000000000
(1620515269.184134) can0 000#8000
(1620515269.185510) can0 601#2B71600000000000
(1620515269.185636) can0 581#6071600000000000
(1620515269.185757) can0 000#8000
(1620515269.187129) can0 601#2B71600000000000
(1620515269.187258) can0 581#6071600000000000
(1620515269.188631) can0 000#8000
(1620515269.188756) can0 102#0129014B027102EC
(1620515269.190128) can0 000#8000
(1620515269.191524) can0 601#2B71600000000000
(1620515269.191637) can0 581#6071600000000000
(1620515269.191755) can0 000#8000
(1620515269.193133) can0 601#2B71600000000000
(1620515269.193258) can0 581#6071600000000000
(1620515269.194630) can0 000#8000
(1620515269.194758) can0 601#2B71600000000000
(1620515269.196134) can0 581#6071600000000000
(1620515269.196257) can0 000#8000
(1620515269.197629) can0 601#2B71600000000000
(1620515269.197757) can0 581#6071600000000000
(1620515269.197882) can0 000#8000
(1620515269.199254) can0 601#2B71600000000000
(1620515269.199383) can0 581#6071600000000000
(1620515269.200758) can0 000#8000
(1620515269.200888) can0 601#2B71600000000000
(1620515269.202254) can0 581#6071600000000000
(1620515269.202383) can0 000#8000
(1620515269.203755) can0 601#2B71600000000000
(1620515269.203884) can0 581#6071600000000000
(1620515269.204007) can0 000#8000
(1620515269.205382) can0 601#2B71600000000000
(1620515269.205504) can0 581#6071600000000000
(1620515269.206879) can0 000#8000
(1620515269.207006) can0 601#2B71600000000000
(1620515269.207130) can0 581#6071600000000000
(1620515269.208505) can0 000#8000
(1620515269.209887) can0 601#2B71600000000000
(1620515269.210004) can0 581#6071600000000000
(1620515269.210130) can0 000#8000
(1620515269.210256) can0 102#012A014D02A702DA
(1620515269.211631) can0 601#2B71600000000000
(1620515269.211754) can0 581#6071600000000000
(1620515269.211880) can0 000#8000
(1620515269.213262) can0 601#2B71600000000000
(1620515269.213386) can0 581#6071600000000000
(1620515269.214760) can0 000#8000
(1620515269.214884) can0 601#2B71600000000000
(1620515269.216257) can0 581#6071600000000000
(1620515269.216381) can0 000#8000
(1620515269.217756) can0 601#2B71600000000000
(1620515269.217877) can0 581#6071600000000000
(1620515269.218015) can0 000#8000
(1620515269.219381) can0 601#2B71600000000000
(1620515269.219546) can0 581#6071600000000000
(1620515269.220882) can0 000#8000
(1620515269.221006) can0 601#2B71600000000000
(1620515269.222379) can0 581#6071600000000000
(1620515269.222506) can0 000#8000
(1620515269.223881) can0 601#2B71600000000000
(1620515269.224006) can0 581#6071600000000000
(1620515269.224128) can0 000#8000
(1620515269.225505) can0 601#2B71600000000000
(1620515269.225630) can0 581#6071600000000000
(1620515269.225754) can0 000#8000
(1620515269.227138) can0 601#2B71600000000000
(1620515269.227260) can0 581#6071600000000000
(1620515269.228630) can0 000#8000
(1620515269.230010) can0 601#2B71600000000000
(1620515269.230214) can0 581#6071600000000000
(1620515269.230255) can0 000#8000
(1620515269.231627) can0 601#2B71600000000000
(1620515269.231759) can0 102#01270152027902EE
(1620515269.231880) can0 581#6071600000000000
(1620515269.232005) can0 000#8000
(1620515269.233380) can0 601#2B71600000000000
(1620515269.233507) can0 581#6071600000000000
(1620515269.234879) can0 000#8000
(1620515269.235007) can0 601#2B71600000000000
(1620515269.236380) can0 581#6071600000000000
(1620515269.236508) can0 000#8000
(1620515269.237882) can0 601#2B71600000000000
(1620515269.238007) can0 581#6071600000000000
(1620515269.238131) can0 000#8000
(1620515269.239522) can0 601#2B71600000000000
(1620515269.239637) can0 581#6071600000000000
(1620515269.241006) can0 000#8000
(1620515269.241133) can0 601#2B71600000000000
(1620515269.241261) can0 581#6071600000000000
(1620515269.242632) can0 000#8000
(1620515269.244007) can0 601#2B71600000000000
(1620515269.244138) can0 581#6071600000000000
(1620515269.244258) can0 000#8000
(1620515269.245631) can0 601#2B71600000000000
(1620515269.245761) can0 581#6071600000000000
(1620515269.245882) can0 000#8000
(1620515269.247258) can0 601#2B71600000000000
(1620515269.247383) can0 581#6071600000000000
(1620515269.248756) can0 000#8000
(1620515269.250130) can0 601#2B71600000000000
(1620515269.250257) can0 581#6071600000000000
(1620515269.250382) can0 000#8000
(1620515269.251772) can0 601#2B71600000000000
(1620515269.251898) can0 581#6071600000000000
(1620515269.252024) can0 000#8000
(1620515269.252151) can0 102#01280149026B02F4
(1620515269.253510) can0 601#2B71600000000000
(1620515269.253632) can0 581#6071600000000000
(1620515269.255005) can0 000#8000
(1620515269.255133) can0 601#2B71600000000000
(1620515269.256509) can0 581#6071600000000000
(1620515269.256633) can0 000#8000
(1620515269.258009) can0 601#2B71600000000000
(1620515269.258136) can0 581#6071600000000000
(1620515269.258255) can0 000#8000
(1620515269.259631) can0 601#2B71600000000000
(1620515269.259759) can0 581#6071600000000000
(1620515269.259877) can0 000#8000
(1620515269.261255) can0 601#2B71600000000000
(1620515269.261380) can0 581#6071600000000000
(1620515269.262754) can0 000#8000
(1620515269.264131) can0 601#2B71600000000000
(1620515269.264266) can0 581#6071600000000000
(1620515269.264382) can0 000#8000
(1620515269.265755) can0 601#2B71600000000000
(1620515269.265882) can0 581#6071600000000000
(1620515269.266003) can0 000#8000
(1620515269.267381) can0 601#2B71600000000000
(1620515269.267506) can0 581#6071600000000000
(1620515269.268890) can0 000#8000
(1620515269.269008) can0 601#2B71600000000000
(1620515269.270380) can0 581#6071600000000000
(1620515269.270511) can0 000#8000
(1620515269.271879) can0 601#2B71600000000000
(1620515269.272007) can0 581#6071600000000000
(1620515269.272132) can0 000#8000
(1620515269.273504) can0 601#2B71600000000000
(1620515269.273636) can0 102#0126014F027302F1
(1620515269.273767) can0 581#6071600000000000
(1620515269.275130) can0 000#8000
(1620515269.275258) can0 601#2B71600000000000
(1620515269.275380) can0 581#6071600000000000
(1620515269.276756) can0 000#8000
(1620515269.278134) can0 601#2B71600000000000
(1620515269.278265) can0 581#6071600000000000
(1620515269.278381) can0 000#8000
(1620515269.279758) can0 601#2B71600000000000
(1620515269.279891) can0 581#6071600000000000
(1620515269.280010) can0 000#8000
(1620515269.281380) can0 601#2B71600000000000
(1620515269.281506) can0 581#6071600000000000
(1620515269.282882) can0 000#8000
(1620515269.284257) can0 601#2B71600000000000
(1620515269.284387) can0 581#6071600000000000
(1620515269.284510) can0 000#8000
(1620515269.285881) can0 601#2B71600000000000
(1620515269.286014) can0 581#6071600000000000
(1620515269.286134) can0 000#8000
(1620515269.287525) can0 601#2B71600000000000
(1620515269.287637) can0 581#6071600000000000
(1620515269.289006) can0 000#8000
(1620515269.289139) can0 601#2B71600000000000
(1620515269.290506) can0 581#6071600000000000
(1620515269.290637) can0 000#8000
(1620515269.292006) can0 601#2B71600000000000
(1620515269.292144) can0 581#6071600000000000
(1620515269.292253) can0 000#8000
(1620515269.293635) can0 601#2B71600000000000
(1620515269.293764) can0 581#6071600000000000
(1620515269.295131) can0 000#8000
(1620515269.295298) can0 102#012B014E026102E3
(1620515269.295404) can0 601#2B71600000000000
(1620515269.295530) can0 581#6071600000000000
(1620515269.296888) can0 000#8000
(1620515269.298258) can0 601#2B71600000000000
(1620515269.298382) can0 581#6071600000000000
(1620515269.298505) can0 000#8000
(1620515269.299881) can0 601#2B71600000000000
(1620515269.300008) can0 581#6071600000000000
(1620515269.300130) can0 000#8000
(1620515269.301508) can0 601#2B71600000000000
(1620515269.301629) can0 581#6071600000000000
(1620515269.303005) can0 000#8000
(1620515269.303130) can0 601#2B71600000000000
(1620515269.304504) can0 581#6071600000000000
(1620515269.304631) can0 000#8000
(1620515269.306004) can0 601#2B71600000000000
(1620515269.306226) can0 000#8000
(1620515269.306266) can0 581#6071600000000000
(1620515269.307641) can0 601#2B71600000000000
(1620515269.307768) can0 581#6071600000000000
(1620515269.309131) can0 000#8000
(1620515269.309254) can0 601#2B71600000000000
(1620515269.310639) can0 581#6071600000000000
(1620515269.310768) can0 000#8000
(1620515269.312130) can0 601#2B71600000000000
(1620515269.312257) can0 581#6071600000000000
(1620515269.312384) can0 000#8000
(1620515269.313756) can0 601#2B71600000000000
(1620515269.313886) can0 581#6071600000000000
(1620515269.315255) can0 000#8000
(1620515269.315384) can0 601#2B71600000000000
(1620515269.315512) can0 102#01270151027402F6
(1620515269.316880) can0 581#6071600000000000
(1620515269.317042) can0 000#8000
(1620515269.318381) can0 601#2B71600000000000
(1620515269.318511) can0 581#6071600000000000
(1620515269.318628) can0 000#8000
(1620515269.320008) can0 601#2B71600000000000
(1620515269.320133) can0 581#6071600000000000
(1620515269.320254) can0 000#8000
(1620515269.321631) can0 601#2B71600000000000
(1620515269.321761) can0 581#6071600000000000
(1620515269.323135) can0 000#8000
(1620515269.323262) can0 601#2B71600000000000
(1620515269.324632) can0 581#6071600000000000
(1620515269.324760) can0 000#8000
(1620515269.326135) can0 601#2B71600000000000
(1620515269.326261) can0 581#6071600000000000
(1620515269.326385) can0 000#8000
(1620515269.327766) can0 601#2B71600000000000
(1620515269.327884) can0 581#6071600000000000
(1620515269.329258) can0 000#8000
(1620515269.329386) can0 601#2B71600000000000
(1620515269.330757) can0 581#6071600000000000
(1620515269.330880) can0 000#8000
(1620515269.332256) can0 601#2B71600000000000
(1620515269.332379) can0 581#6071600000000000
(1620515269.332505) can0 000#8000
(1620515269.333879) can0 601#2B71600000000000
(1620515269.334009) can0 581#6071600000000000
(1620515269.334130) can0 000#8000
(1620515269.335528) can0 601#2B71600000000000
(1620515269.335639) can0 581#6071600000000000
(1620515269.337008) can0 000#8000
(1620515269.337137) can0 102#0129014C026E02F3
(1620515269.338511) can0 601#2B71600000000000
(1620515269.338714) can0 581#6071600000000000
(1620515269.338753) can0 000#8000
(1620515269.340135) can0 601#2B71600000000000
(1620515269.340261) can0 000#8000
(1620515269.340384) can0 581#6071600000000000
(1620515269.341756) can0 601#2B71600000000000
(1620515269.341884) can0 581#6071600000000000
(1620515269.343255) can0 000#8000
(1620515269.343383) can0 601#2B71600000000000
(1620515269.344758) can0 581#6071600000000000
(1620515269.344889) can0 000#8000
(1620515269.346256) can0 601#2B71600000000000
(1620515269.346385) can0 581#6071600000000000
(1620515269.346506) can0 000#8000
(1620515269.347884) can0 601#2B71600000000000
(1620515269.348004) can0 581#6071600000000000
(1620515269.349386) can0 000#8000
(1620515269.349510) can0 601#2B71600000000000
(1620515269.349642) can0 581#6071600000000000
(1620515269.351009) can0 000#8000
(1620515269.352381) can0 601#2B71600000000000
(1620515269.352511) can0 581#6071600000000000
(1620515269.352629) can0 000#8000
(1620515269.354009) can0 601#2B71600000000000
(1620515269.354145) can0 581#6071600000000000
(1620515269.354256) can0 000#8000
(1620515269.355633) can0 601#2B71600000000000
(1620515269.355753) can0 581#6071600000000000
(1620515269.357132) can0 000#8000
(1620515269.358509) can0 601#2B71600000000000
(1620515269.358636) can0 102#01270150026F02FC
(1620515269.358759) can0 581#6071600000000000
(1620515269.358889) can0 000#8000
(1620515269.360256) can0 601#2B71600000000000
(1620515269.360380) can0 581#6071600000000000
(1620515269.360511) can0 000#8000
(1620515269.361877) can0 601#2B71600000000000
(1620515269.362009) can0 581#6071600000000000
(1620515269.363381) can0 000#8000
(1620515269.363525) can0 601#2B71600000000000
(1620515269.364881) can0 581#6071600000000000
(1620515269.365008) can0 000#8000
(1620515269.366383) can0 601#2B71600000000000
(1620515269.366508) can0 581#6071600000000000
(1620515269.366634) can0 000#8000
(1620515269.368005) can0 601#2B71600000000000
(1620515269.368133) can0 581#6071600000000000
(1620515269.369505) can0 000#8000
(1620515269.369638) can0 601#2B71600000000000
(1620515269.369762) can0 581#6071600000000000
(1620515269.371132) can0 000#8000
(1620515269.372506) can0 601#2B71600000000000
(1620515269.372630) can0 581#6071600000000000
(1620515269.372754) can0 000#8000
(1620515269.374132) can0 601#2B71600000000000
(1620515269.374262) can0 581#6071600000000000
(1620515269.374382) can0 000#8000
(1620515269.375756) can0 601#2B71600000000000
(1620515269.375882) can0 581#6071600000000000
(1620515269.377256) can0 000#8000
(1620515269.378632) can0 601#2B71600000000000
(1620515269.378756) can0 581#6071600000000000
(1620515269.378880) can0 000#8000
(1620515269.379002) can0 102#012A014D026F02F8
(1620515269.380384) can0 601#2B71600000000000
(1620515269.380507) can0 581#6071600000000000
(1620515269.380635) can0 000#8000
(1620515269.382006) can0 601#2B71600000000000
(1620515269.382143) can0 581#6071600000000000
(1620515269.383509) can0 000#8000
(1620515269.383640) can0 601#2B71600000000000
(1620515269.385005) can0 581#6071600000000000
(1620515269.385136) can0 000#8000
(1620515269.386506) can0 601#2B71600000000000
(1620515269.386637) can0 581#6071600000000000
(1620515269.386756) can0 000#8000
(1620515269.388130) can0 601#2B71600000000000
(1620515269.388261) can0 581#6071600000000000
(1620515269.389631) can0 000#8000
(1620515269.389763) can0 601#2B71600000000000
(1620515269.389923) can0 581#6071600000000000
(1620515269.391256) can0 000#8000
(1620515269.392631) can0 601#2B71600000000000
(1620515269.392758) can0 581#6071600000000000
(1620515269.392884) can0 000#8000
(1620515269.394254) can0 601#2B71600000000000
(1620515269.394381) can0 581#6071600000000000
(1620515269.394506) can0 000#8000
(1620515269.395888) can0 601#2B71600000000000
(1620515269.396014) can0 581#6071600000000000
(1620515269.397398) can0 000#8000
(1620515269.397530) can0 601#2B71600000000000
(1620515269.398882) can0 581#6071600000000000
(1620515269.399007) can0 000#8000
(1620515269.400382) can0 080#00
(1620515269.400590) can0 102#0128014A026B02EE
(1620515269.400638) can0 601#2B71600000000000
(1620515269.402006) can0 581#6071600000000000
(1620515269.402136) can0 581#4077600000000000
(1620515269.403522) can0 000#8000
(1620515269.403662) can0 581#406C600000000000
(1620515269.405007) can0 601#2B71600000000000
(1620515269.405138) can0 581#6071600000000000
(1620515269.406506) can0 420#000001
(1620515269.406634) can0 000#8000
(1620515269.408008) can0 601#2B71600000000000
(1620515269.408135) can0 581#6071600000000000
(1620515269.409505) can0 000#8000
(1620515269.409632) can0 601#2B71600000000000
(1620515269.411008) can0 581#6071600000000000
(1620515269.411147) can0 000#8000
(1620515269.412513) can0 601#2B71600000000000
(1620515269.412644) can0 581#6071600000000000
(1620515269.412762) can0 000#8000
(1620515269.414132) can0 601#2B71600000000000
(1620515269.414255) can0 581#6071600000000000
(1620515269.415630) can0 000#8000
(1620515269.415755) can0 601#2B71600000000000
(1620515269.417129) can0 581#6071600000000000
(1620515269.417258) can0 000#8000
(1620515269.418632) can0 601#2B71600000000000
(1620515269.418756) can0 581#6071600000000000
(1620515269.418878) can0 000#8000
(1620515269.420256) can0 601#2B71600000000000
(1620515269.420389) can0 581#6071600000000000
(1620515269.420501) can0 000#8000
(1620515269.421898) can0 102#012A014D026F02F9
(1620515269.422024) can0 601#2B71600000000000
(1620515269.422137) can0 581#6071600000000000
(1620515269.423508) can0 000#8000
(1620515269.423635) can0 601#2B71600000000000
(1620515269.425006) can0 581#6071600000000000
(1620515269.425139) can0 000#8000
(1620515269.426507) can0 601#2B71600000000000
(1620515269.426637) can0 581#6071600000000000
(1620515269.426760) can0 000#8000
(1620515269.428131) can0 601#2B71600000000000
(1620515269.428253) can0 581#6071600000000000
(1620515269.429630) can0 000#8000
(1620515269.429761) can0 601#2B71600000000000
(1620515269.431129) can0 581#6071600000000000
(1620515269.431259) can0 000#8000
(1620515269.432629) can0 601#2B71600000000000
(1620515269.432759) can0 581#6071600000000000
(1620515269.432875) can0 000#8000
